# vsim -vopt work.axi_master_top -voptargs="+acc=npr" -assertdebug -l axi_master.log -sva -coverage -c -do "log -r /*; add wave -r /*; coverage save -onexit -assert -directive -cvg -codeAll axi_coverage.ucdb; run -all; exit" -wlf axi_waveform.wlf 
# Start time: 12:45:37 on Jan 23,2024
# ** Note: (vsim-3812) Design is being optimized...
# ** Warning: (vopt-8637) monitor/axi_master_monitor.sv(63): A modport ('axi_master_mo_mp') should not be used in a hierarchical path.
# ** Warning: (vopt-8637) monitor/axi_master_monitor.sv(63): A modport ('axi_master_mo_mp') should not be used in a hierarchical path.
# ** Warning: (vopt-8637) monitor/axi_master_monitor.sv(64): A modport ('axi_master_mo_mp') should not be used in a hierarchical path.
# ** Warning: (vopt-8637) monitor/axi_master_monitor.sv(64): A modport ('axi_master_mo_mp') should not be used in a hierarchical path.
# ** Warning: (vopt-8637) monitor/axi_master_monitor.sv(76): A modport ('axi_master_mo_mp') should not be used in a hierarchical path.
# ** Warning: (vopt-8637) monitor/axi_master_monitor.sv(76): A modport ('axi_master_mo_mp') should not be used in a hierarchical path.
# ** Warning: (vopt-8637) monitor/axi_master_monitor.sv(76): A modport ('axi_master_mo_mp') should not be used in a hierarchical path.
# ** Warning: (vopt-8637) monitor/axi_master_monitor.sv(76): A modport ('axi_master_mo_mp') should not be used in a hierarchical path.
# ** Warning: (vopt-8637) monitor/axi_master_monitor.sv(88): A modport ('axi_master_mo_mp') should not be used in a hierarchical path.
# ** Warning: (vopt-8637) monitor/axi_master_monitor.sv(88): A modport ('axi_master_mo_mp') should not be used in a hierarchical path.
# ** Warning: (vopt-8637) monitor/axi_master_monitor.sv(89): A modport ('axi_master_mo_mp') should not be used in a hierarchical path.
# ** Warning: (vopt-8637) monitor/axi_master_monitor.sv(89): A modport ('axi_master_mo_mp') should not be used in a hierarchical path.
# ** Warning: (vopt-8637) monitor/axi_master_monitor.sv(90): A modport ('axi_master_mo_mp') should not be used in a hierarchical path.
# ** Warning: (vopt-8637) monitor/axi_master_monitor.sv(90): A modport ('axi_master_mo_mp') should not be used in a hierarchical path.
# ** Warning: (vopt-8637) monitor/axi_master_monitor.sv(91): A modport ('axi_master_mo_mp') should not be used in a hierarchical path.
# ** Warning: (vopt-8637) monitor/axi_master_monitor.sv(91): A modport ('axi_master_mo_mp') should not be used in a hierarchical path.
# ** Warning: (vopt-8637) monitor/axi_master_monitor.sv(92): A modport ('axi_master_mo_mp') should not be used in a hierarchical path.
# ** Warning: (vopt-8637) monitor/axi_master_monitor.sv(92): A modport ('axi_master_mo_mp') should not be used in a hierarchical path.
# ** Warning: (vopt-8637) monitor/axi_master_monitor.sv(93): A modport ('axi_master_mo_mp') should not be used in a hierarchical path.
# ** Warning: (vopt-8637) monitor/axi_master_monitor.sv(93): A modport ('axi_master_mo_mp') should not be used in a hierarchical path.
# ** Warning: (vopt-8637) monitor/axi_master_monitor.sv(94): A modport ('axi_master_mo_mp') should not be used in a hierarchical path.
# ** Warning: (vopt-8637) monitor/axi_master_monitor.sv(94): A modport ('axi_master_mo_mp') should not be used in a hierarchical path.
# ** Warning: (vopt-8637) monitor/axi_master_monitor.sv(105): A modport ('axi_master_mo_mp') should not be used in a hierarchical path.
# ** Warning: (vopt-8637) monitor/axi_master_monitor.sv(105): A modport ('axi_master_mo_mp') should not be used in a hierarchical path.
# ** Warning: (vopt-8637) monitor/axi_master_monitor.sv(105): A modport ('axi_master_mo_mp') should not be used in a hierarchical path.
# ** Warning: (vopt-8637) monitor/axi_master_monitor.sv(105): A modport ('axi_master_mo_mp') should not be used in a hierarchical path.
# ** Warning: (vopt-8637) monitor/axi_master_monitor.sv(113): A modport ('axi_master_mo_mp') should not be used in a hierarchical path.
# ** Warning: (vopt-8637) monitor/axi_master_monitor.sv(113): A modport ('axi_master_mo_mp') should not be used in a hierarchical path.
# ** Warning: (vopt-8637) monitor/axi_master_monitor.sv(114): A modport ('axi_master_mo_mp') should not be used in a hierarchical path.
# ** Warning: (vopt-8637) monitor/axi_master_monitor.sv(114): A modport ('axi_master_mo_mp') should not be used in a hierarchical path.
# ** Warning: (vopt-8637) monitor/axi_master_monitor.sv(116): A modport ('axi_master_mo_mp') should not be used in a hierarchical path.
# ** Warning: (vopt-8637) monitor/axi_master_monitor.sv(116): A modport ('axi_master_mo_mp') should not be used in a hierarchical path.
# ** Warning: (vopt-8637) monitor/axi_master_monitor.sv(136): A modport ('axi_master_mo_mp') should not be used in a hierarchical path.
# ** Warning: (vopt-8637) monitor/axi_master_monitor.sv(136): A modport ('axi_master_mo_mp') should not be used in a hierarchical path.
# ** Warning: (vopt-8637) monitor/axi_master_monitor.sv(136): A modport ('axi_master_mo_mp') should not be used in a hierarchical path.
# ** Warning: (vopt-8637) monitor/axi_master_monitor.sv(136): A modport ('axi_master_mo_mp') should not be used in a hierarchical path.
# ** Warning: (vopt-8637) monitor/axi_master_monitor.sv(141): A modport ('axi_master_mo_mp') should not be used in a hierarchical path.
# ** Warning: (vopt-8637) monitor/axi_master_monitor.sv(141): A modport ('axi_master_mo_mp') should not be used in a hierarchical path.
# ** Warning: (vopt-8637) monitor/axi_master_monitor.sv(142): A modport ('axi_master_mo_mp') should not be used in a hierarchical path.
# ** Warning: (vopt-8637) monitor/axi_master_monitor.sv(142): A modport ('axi_master_mo_mp') should not be used in a hierarchical path.
# ** Warning: (vopt-8637) monitor/axi_master_monitor.sv(155): A modport ('axi_master_mo_mp') should not be used in a hierarchical path.
# ** Warning: (vopt-8637) monitor/axi_master_monitor.sv(155): A modport ('axi_master_mo_mp') should not be used in a hierarchical path.
# ** Warning: (vopt-8637) monitor/axi_master_monitor.sv(155): A modport ('axi_master_mo_mp') should not be used in a hierarchical path.
# ** Warning: (vopt-8637) monitor/axi_master_monitor.sv(155): A modport ('axi_master_mo_mp') should not be used in a hierarchical path.
# ** Warning: (vopt-8637) monitor/axi_master_monitor.sv(167): A modport ('axi_master_mo_mp') should not be used in a hierarchical path.
# ** Warning: (vopt-8637) monitor/axi_master_monitor.sv(167): A modport ('axi_master_mo_mp') should not be used in a hierarchical path.
# ** Warning: (vopt-8637) monitor/axi_master_monitor.sv(168): A modport ('axi_master_mo_mp') should not be used in a hierarchical path.
# ** Warning: (vopt-8637) monitor/axi_master_monitor.sv(168): A modport ('axi_master_mo_mp') should not be used in a hierarchical path.
# ** Warning: (vopt-8637) monitor/axi_master_monitor.sv(169): A modport ('axi_master_mo_mp') should not be used in a hierarchical path.
# ** Warning: (vopt-8637) monitor/axi_master_monitor.sv(169): A modport ('axi_master_mo_mp') should not be used in a hierarchical path.
# ** Warning: (vopt-8637) monitor/axi_master_monitor.sv(170): A modport ('axi_master_mo_mp') should not be used in a hierarchical path.
# ** Warning: (vopt-8637) monitor/axi_master_monitor.sv(170): A modport ('axi_master_mo_mp') should not be used in a hierarchical path.
# ** Warning: (vopt-8637) monitor/axi_master_monitor.sv(171): A modport ('axi_master_mo_mp') should not be used in a hierarchical path.
# ** Warning: (vopt-8637) monitor/axi_master_monitor.sv(171): A modport ('axi_master_mo_mp') should not be used in a hierarchical path.
# ** Warning: (vopt-8637) monitor/axi_master_monitor.sv(172): A modport ('axi_master_mo_mp') should not be used in a hierarchical path.
# ** Warning: (vopt-8637) monitor/axi_master_monitor.sv(172): A modport ('axi_master_mo_mp') should not be used in a hierarchical path.
# ** Warning: (vopt-8637) monitor/axi_master_monitor.sv(173): A modport ('axi_master_mo_mp') should not be used in a hierarchical path.
# ** Warning: (vopt-8637) monitor/axi_master_monitor.sv(173): A modport ('axi_master_mo_mp') should not be used in a hierarchical path.
# ** Warning: (vopt-8637) monitor/axi_master_monitor.sv(182): A modport ('axi_master_mo_mp') should not be used in a hierarchical path.
# ** Warning: (vopt-8637) monitor/axi_master_monitor.sv(182): A modport ('axi_master_mo_mp') should not be used in a hierarchical path.
# ** Warning: (vopt-8637) monitor/axi_master_monitor.sv(182): A modport ('axi_master_mo_mp') should not be used in a hierarchical path.
# ** Warning: (vopt-8637) monitor/axi_master_monitor.sv(182): A modport ('axi_master_mo_mp') should not be used in a hierarchical path.
# ** Warning: (vopt-8637) monitor/axi_master_monitor.sv(192): A modport ('axi_master_mo_mp') should not be used in a hierarchical path.
# ** Warning: (vopt-8637) monitor/axi_master_monitor.sv(192): A modport ('axi_master_mo_mp') should not be used in a hierarchical path.
# ** Warning: (vopt-8637) monitor/axi_master_monitor.sv(194): A modport ('axi_master_mo_mp') should not be used in a hierarchical path.
# ** Warning: (vopt-8637) monitor/axi_master_monitor.sv(194): A modport ('axi_master_mo_mp') should not be used in a hierarchical path.
# ** Warning: (vopt-8637) monitor/axi_master_monitor.sv(195): A modport ('axi_master_mo_mp') should not be used in a hierarchical path.
# ** Warning: (vopt-8637) monitor/axi_master_monitor.sv(195): A modport ('axi_master_mo_mp') should not be used in a hierarchical path.
# //  Questa Sim
# //  Version 10.6c linux Jul 25 2017
# //
# //  Copyright 1991-2017 Mentor Graphics Corporation
# //  All Rights Reserved.
# //
# //  QuestaSim and its associated documentation contain trade
# //  secrets and commercial or financial information that are the property of
# //  Mentor Graphics Corporation and are privileged, confidential,
# //  and exempt from disclosure under the Freedom of Information Act,
# //  5 U.S.C. Section 552. Furthermore, this information
# //  is prohibited from disclosure under the Trade Secrets Act,
# //  18 U.S.C. Section 1905.
# //
# Loading sv_std.std
# Loading work.axi4_globals_pkg(fast)
# Loading mtiUvm.uvm_pkg
# Loading work.axi_master_top_sv_unit(fast)
# Loading work.axi_master_top(fast)
# Loading work.axi_master_interface(fast)
# Loading work.axi_ram(fast)
# Loading mtiUvm.questa_uvm_pkg(fast)
# Loading work.axi_master_interface(fast)
# ** Warning: (vsim-8637) monitor/axi_master_monitor.sv(63): A modport ('axi_master_mo_mp') should not be used in a hierarchical path.
#    Time: 0 ps  Iteration: 0  Region: /axi_master_top_sv_unit File: axi_master_top.sv
# ** Warning: (vsim-8637) axi_master_driver.sv(172): A modport ('axi_master_dr_mp') should not be used in a hierarchical path.
#    Time: 0 ps  Iteration: 0  Region: /axi_master_top_sv_unit::axi_master_driver File: axi_master_top.sv
# ** Warning: (vsim-8637) axi_master_driver.sv(168): A modport ('axi_master_dr_mp') should not be used in a hierarchical path.
#    Time: 0 ps  Iteration: 0  Region: /axi_master_top_sv_unit::axi_master_driver File: axi_master_top.sv
# ** Warning: (vsim-8637) axi_master_driver.sv(160): A modport ('axi_master_dr_mp') should not be used in a hierarchical path.
#    Time: 0 ps  Iteration: 0  Region: /axi_master_top_sv_unit::axi_master_driver File: axi_master_top.sv
# ** Warning: (vsim-8637) axi_master_driver.sv(159): A modport ('axi_master_dr_mp') should not be used in a hierarchical path.
#    Time: 0 ps  Iteration: 0  Region: /axi_master_top_sv_unit::axi_master_driver File: axi_master_top.sv
# ** Warning: (vsim-8637) axi_master_driver.sv(158): A modport ('axi_master_dr_mp') should not be used in a hierarchical path.
#    Time: 0 ps  Iteration: 0  Region: /axi_master_top_sv_unit::axi_master_driver File: axi_master_top.sv
# ** Warning: (vsim-8637) axi_master_driver.sv(157): A modport ('axi_master_dr_mp') should not be used in a hierarchical path.
#    Time: 0 ps  Iteration: 0  Region: /axi_master_top_sv_unit::axi_master_driver File: axi_master_top.sv
# ** Warning: (vsim-8637) axi_master_driver.sv(156): A modport ('axi_master_dr_mp') should not be used in a hierarchical path.
#    Time: 0 ps  Iteration: 0  Region: /axi_master_top_sv_unit::axi_master_driver File: axi_master_top.sv
# ** Warning: (vsim-8637) axi_master_driver.sv(155): A modport ('axi_master_dr_mp') should not be used in a hierarchical path.
#    Time: 0 ps  Iteration: 0  Region: /axi_master_top_sv_unit::axi_master_driver File: axi_master_top.sv
# ** Warning: (vsim-8637) axi_master_driver.sv(154): A modport ('axi_master_dr_mp') should not be used in a hierarchical path.
#    Time: 0 ps  Iteration: 0  Region: /axi_master_top_sv_unit::axi_master_driver File: axi_master_top.sv
# ** Warning: (vsim-8637) axi_master_driver.sv(153): A modport ('axi_master_dr_mp') should not be used in a hierarchical path.
#    Time: 0 ps  Iteration: 0  Region: /axi_master_top_sv_unit::axi_master_driver File: axi_master_top.sv
# ** Warning: (vsim-8637) axi_master_driver.sv(152): A modport ('axi_master_dr_mp') should not be used in a hierarchical path.
#    Time: 0 ps  Iteration: 0  Region: /axi_master_top_sv_unit::axi_master_driver File: axi_master_top.sv
# ** Warning: (vsim-8637) axi_master_driver.sv(148): A modport ('axi_master_dr_mp') should not be used in a hierarchical path.
#    Time: 0 ps  Iteration: 0  Region: /axi_master_top_sv_unit::axi_master_driver File: axi_master_top.sv
# ** Warning: (vsim-8637) axi_master_driver.sv(130): A modport ('axi_master_dr_mp') should not be used in a hierarchical path.
#    Time: 0 ps  Iteration: 0  Region: /axi_master_top_sv_unit::axi_master_driver File: axi_master_top.sv
# ** Warning: (vsim-8637) axi_master_driver.sv(126): A modport ('axi_master_dr_mp') should not be used in a hierarchical path.
#    Time: 0 ps  Iteration: 0  Region: /axi_master_top_sv_unit::axi_master_driver File: axi_master_top.sv
# ** Warning: (vsim-8637) axi_master_driver.sv(124): A modport ('axi_master_dr_mp') should not be used in a hierarchical path.
#    Time: 0 ps  Iteration: 0  Region: /axi_master_top_sv_unit::axi_master_driver File: axi_master_top.sv
# ** Warning: (vsim-8637) axi_master_driver.sv(112): A modport ('axi_master_dr_mp') should not be used in a hierarchical path.
#    Time: 0 ps  Iteration: 0  Region: /axi_master_top_sv_unit::axi_master_driver File: axi_master_top.sv
# ** Warning: (vsim-8637) axi_master_driver.sv(110): A modport ('axi_master_dr_mp') should not be used in a hierarchical path.
#    Time: 0 ps  Iteration: 0  Region: /axi_master_top_sv_unit::axi_master_driver File: axi_master_top.sv
# ** Warning: (vsim-8637) axi_master_driver.sv(109): A modport ('axi_master_dr_mp') should not be used in a hierarchical path.
#    Time: 0 ps  Iteration: 0  Region: /axi_master_top_sv_unit::axi_master_driver File: axi_master_top.sv
# ** Warning: (vsim-8637) axi_master_driver.sv(108): A modport ('axi_master_dr_mp') should not be used in a hierarchical path.
#    Time: 0 ps  Iteration: 0  Region: /axi_master_top_sv_unit::axi_master_driver File: axi_master_top.sv
# ** Warning: (vsim-8637) axi_master_driver.sv(126): A modport ('axi_master_dr_mp') should not be used in a hierarchical path.
#    Time: 0 ps  Iteration: 0  Region: /axi_master_top_sv_unit::axi_master_driver File: axi_master_top.sv
# ** Warning: (vsim-8637) axi_master_driver.sv(92): A modport ('axi_master_dr_mp') should not be used in a hierarchical path.
#    Time: 0 ps  Iteration: 0  Region: /axi_master_top_sv_unit::axi_master_driver File: axi_master_top.sv
# ** Warning: (vsim-8637) axi_master_driver.sv(91): A modport ('axi_master_dr_mp') should not be used in a hierarchical path.
#    Time: 0 ps  Iteration: 0  Region: /axi_master_top_sv_unit::axi_master_driver File: axi_master_top.sv
# ** Warning: (vsim-8637) axi_master_driver.sv(90): A modport ('axi_master_dr_mp') should not be used in a hierarchical path.
#    Time: 0 ps  Iteration: 0  Region: /axi_master_top_sv_unit::axi_master_driver File: axi_master_top.sv
# ** Warning: (vsim-8637) axi_master_driver.sv(89): A modport ('axi_master_dr_mp') should not be used in a hierarchical path.
#    Time: 0 ps  Iteration: 0  Region: /axi_master_top_sv_unit::axi_master_driver File: axi_master_top.sv
# ** Warning: (vsim-8637) axi_master_driver.sv(88): A modport ('axi_master_dr_mp') should not be used in a hierarchical path.
#    Time: 0 ps  Iteration: 0  Region: /axi_master_top_sv_unit::axi_master_driver File: axi_master_top.sv
# ** Warning: (vsim-8637) axi_master_driver.sv(87): A modport ('axi_master_dr_mp') should not be used in a hierarchical path.
#    Time: 0 ps  Iteration: 0  Region: /axi_master_top_sv_unit::axi_master_driver File: axi_master_top.sv
# ** Warning: (vsim-8637) axi_master_driver.sv(86): A modport ('axi_master_dr_mp') should not be used in a hierarchical path.
#    Time: 0 ps  Iteration: 0  Region: /axi_master_top_sv_unit::axi_master_driver File: axi_master_top.sv
# ** Warning: (vsim-8637) axi_master_driver.sv(85): A modport ('axi_master_dr_mp') should not be used in a hierarchical path.
#    Time: 0 ps  Iteration: 0  Region: /axi_master_top_sv_unit::axi_master_driver File: axi_master_top.sv
# ** Warning: (vsim-8637) axi_master_driver.sv(84): A modport ('axi_master_dr_mp') should not be used in a hierarchical path.
#    Time: 0 ps  Iteration: 0  Region: /axi_master_top_sv_unit::axi_master_driver File: axi_master_top.sv
# ** Warning: (vsim-8637) axi_master_driver.sv(126): A modport ('axi_master_dr_mp') should not be used in a hierarchical path.
#    Time: 0 ps  Iteration: 0  Region: /axi_master_top_sv_unit::axi_master_driver File: axi_master_top.sv
# ** Warning: (vsim-8637) axi_master_driver.sv(67): A modport ('axi_master_dr_mp') should not be used in a hierarchical path.
#    Time: 0 ps  Iteration: 0  Region: /axi_master_top_sv_unit::axi_master_driver File: axi_master_top.sv
# ** Warning: (vsim-8441) axi_master_driver.sv(67): Clocking block output vif.axi_master_dr_mp.axi_master_dr_cb.s_axi_awvalid is not legal in this
# or another expression.
#    Time: 0 ps  Iteration: 0  Region: /axi_master_top_sv_unit::axi_master_driver File: axi_master_top.sv
# ** Warning: (vsim-8637) axi_master_driver.sv(53): A modport ('axi_master_dr_mp') should not be used in a hierarchical path.
#    Time: 0 ps  Iteration: 0  Region: /axi_master_top_sv_unit::axi_master_driver File: axi_master_top.sv
# ** Warning: (vsim-8637) axi_master_driver.sv(67): A modport ('axi_master_dr_mp') should not be used in a hierarchical path.
#    Time: 0 ps  Iteration: 0  Region: /axi_master_top_sv_unit::axi_master_driver File: axi_master_top.sv
# ** Warning: (vsim-8441) axi_master_driver.sv(67): Clocking block output vif.axi_master_dr_mp.axi_master_dr_cb.s_axi_awvalid is not legal in this
# or another expression.
#    Time: 0 ps  Iteration: 0  Region: /axi_master_top_sv_unit::axi_master_driver File: axi_master_top.sv
# ** Warning: (vsim-8637) axi_master_driver.sv(50): A modport ('axi_master_dr_mp') should not be used in a hierarchical path.
#    Time: 0 ps  Iteration: 0  Region: /axi_master_top_sv_unit::axi_master_driver File: axi_master_top.sv
# ** Warning: (vsim-8637) axi_master_driver.sv(49): A modport ('axi_master_dr_mp') should not be used in a hierarchical path.
#    Time: 0 ps  Iteration: 0  Region: /axi_master_top_sv_unit::axi_master_driver File: axi_master_top.sv
# Loading /tools/mentor/questasim_10.6c/questasim/uvm-1.1d/linux/uvm_dpi.so
# ** Warning: (vsim-8634) Code was not compiled with coverage options.
# log -r /*
#  add wave -r /*
#  coverage save -onexit -assert -directive -cvg -codeAll axi_coverage.ucdb
#  run -all
# ----------------------------------------------------------------
# UVM-1.1d
# (C) 2007-2013 Mentor Graphics Corporation
# (C) 2007-2013 Cadence Design Systems, Inc.
# (C) 2006-2013 Synopsys, Inc.
# (C) 2011-2013 Cypress Semiconductor Corp.
# ----------------------------------------------------------------
# 
#   ***********       IMPORTANT RELEASE NOTES         ************
# 
#   You are using a version of the UVM library that has been compiled
#   with `UVM_NO_DEPRECATED undefined.
#   See http://www.eda.org/svdb/view.php?id=3313 for more details.
# 
#   You are using a version of the UVM library that has been compiled
#   with `UVM_OBJECT_MUST_HAVE_CONSTRUCTOR undefined.
#   See http://www.eda.org/svdb/view.php?id=3770 for more details.
# 
#       (Specify +UVM_NO_RELNOTES to turn off this notice)
# 
# UVM_INFO verilog_src/questa_uvm_pkg-1.2/src/questa_uvm_pkg.sv(215) @ 0: reporter [Questa UVM] QUESTA_UVM-1.2.3
# UVM_INFO verilog_src/questa_uvm_pkg-1.2/src/questa_uvm_pkg.sv(217) @ 0: reporter [Questa UVM]  questa_uvm::init(+struct)
# UVM_INFO axi_master_top.sv(79) @ 0: reporter [TOP] in top
# UVM_INFO @ 0: reporter [RNTST] Running test axi_master_write_16b_test...
# UVM_INFO monitor/axi_master_monitor.sv(49) @ 0: uvm_test_top.axi_master_env_h.axi_master_agt.axi_master_mon_h [Monitor: ] Vif found
# UVM_INFO test/axi_base_test.sv(57) @ 0: uvm_test_top [axi_master_write_16b_test] Inside BASE_TEST
# UVM_INFO test/axi_base_test.sv(60) @ 0: uvm_test_top [axi_master_write_16b_test] Done BASE_TEST
# UVM_INFO test/axi_master_write_16b_test.sv(34) @ 0: uvm_test_top [axi_master_write_16b_test] axi_master_write_16b_test
# reset in driver = 1 at time 0
# UVM_WARNING @ 0: uvm_test_top.axi_master_env_h.axi_master_agt.axi_master_seqr_h@@axi_master_write_16b_transfer_h [uvm_sequence_base] Body definition undefined
# reset in driver = 1 at time 5000
# at time 15000 reset is 0
# UVM_INFO monitor/axi_master_monitor.sv(72) @ 15000: uvm_test_top.axi_master_env_h.axi_master_agt.axi_master_mon_h [VALID READY] awvalid = x, awready = 0
# UVM_INFO axi_master_driver.sv(58) @ 15000: uvm_test_top.axi_master_env_h.axi_master_agt.axi_master_drv_h [driver] before get next
# -----------------------------------------------------------------------------------------------------------------------------------------------------------
# Name                           Type                    Size  Value                                                                                         
# -----------------------------------------------------------------------------------------------------------------------------------------------------------
# req                            axi_master_transaction  -     @673                                                                                          
#   begin_time                   time                    64    15000                                                                                         
#   depth                        int                     32    'd2                                                                                           
#   parent sequence (name)       string                  31    axi_master_write_16b_transfer_h                                                               
#   parent sequence (full name)  string                  94    uvm_test_top.axi_master_env_h.axi_master_agt.axi_master_seqr_h.axi_master_write_16b_transfer_h
#   sequencer                    string                  62    uvm_test_top.axi_master_env_h.axi_master_agt.axi_master_seqr_h                                
# -----------------------------------------------------------------------------------------------------------------------------------------------------------
# UVM_INFO axi_master_driver.sv(60) @ 15000: uvm_test_top.axi_master_env_h.axi_master_agt.axi_master_drv_h [driver] AFTER get next
# UVM_INFO monitor/axi_master_monitor.sv(72) @ 25000: uvm_test_top.axi_master_env_h.axi_master_agt.axi_master_mon_h [VALID READY] awvalid = 0, awready = 0
# UVM_INFO monitor/axi_master_monitor.sv(72) @ 35000: uvm_test_top.axi_master_env_h.axi_master_agt.axi_master_mon_h [VALID READY] awvalid = 0, awready = 1
# UVM_INFO monitor/axi_master_monitor.sv(77) @ 45000: uvm_test_top.axi_master_env_h.axi_master_agt.axi_master_mon_h [VALID READY] awvalid = 1, awready = 1
# UVM_INFO monitor/axi_master_monitor.sv(119) @ 55000: uvm_test_top.axi_master_env_h.axi_master_agt.axi_master_mon_h [Monitor] wlast = 0
# UVM_INFO monitor/axi_master_monitor.sv(119) @ 65000: uvm_test_top.axi_master_env_h.axi_master_agt.axi_master_mon_h [Monitor] wlast = 0
# UVM_INFO monitor/axi_master_monitor.sv(119) @ 75000: uvm_test_top.axi_master_env_h.axi_master_agt.axi_master_mon_h [Monitor] wlast = 0
# UVM_INFO monitor/axi_master_monitor.sv(119) @ 85000: uvm_test_top.axi_master_env_h.axi_master_agt.axi_master_mon_h [Monitor] wlast = 0
# UVM_INFO monitor/axi_master_monitor.sv(119) @ 95000: uvm_test_top.axi_master_env_h.axi_master_agt.axi_master_mon_h [Monitor] wlast = 0
# UVM_INFO monitor/axi_master_monitor.sv(119) @ 105000: uvm_test_top.axi_master_env_h.axi_master_agt.axi_master_mon_h [Monitor] wlast = 0
# UVM_INFO monitor/axi_master_monitor.sv(119) @ 115000: uvm_test_top.axi_master_env_h.axi_master_agt.axi_master_mon_h [Monitor] wlast = 0
# UVM_INFO monitor/axi_master_monitor.sv(119) @ 125000: uvm_test_top.axi_master_env_h.axi_master_agt.axi_master_mon_h [Monitor] wlast = 0
# UVM_INFO monitor/axi_master_monitor.sv(119) @ 135000: uvm_test_top.axi_master_env_h.axi_master_agt.axi_master_mon_h [Monitor] wlast = 0
# UVM_INFO monitor/axi_master_monitor.sv(119) @ 145000: uvm_test_top.axi_master_env_h.axi_master_agt.axi_master_mon_h [Monitor] wlast = 0
# UVM_INFO monitor/axi_master_monitor.sv(119) @ 155000: uvm_test_top.axi_master_env_h.axi_master_agt.axi_master_mon_h [Monitor] wlast = 0
# UVM_INFO monitor/axi_master_monitor.sv(119) @ 165000: uvm_test_top.axi_master_env_h.axi_master_agt.axi_master_mon_h [Monitor] wlast = 0
# UVM_INFO monitor/axi_master_monitor.sv(119) @ 175000: uvm_test_top.axi_master_env_h.axi_master_agt.axi_master_mon_h [Monitor] wlast = 0
# UVM_INFO monitor/axi_master_monitor.sv(119) @ 185000: uvm_test_top.axi_master_env_h.axi_master_agt.axi_master_mon_h [Monitor] wlast = 0
# UVM_INFO monitor/axi_master_monitor.sv(119) @ 195000: uvm_test_top.axi_master_env_h.axi_master_agt.axi_master_mon_h [Monitor] wlast = 0
# UVM_INFO monitor/axi_master_monitor.sv(119) @ 205000: uvm_test_top.axi_master_env_h.axi_master_agt.axi_master_mon_h [Monitor] wlast = 0
# UVM_INFO monitor/axi_master_monitor.sv(119) @ 215000: uvm_test_top.axi_master_env_h.axi_master_agt.axi_master_mon_h [Monitor] wlast = 0
# UVM_INFO monitor/axi_master_monitor.sv(119) @ 225000: uvm_test_top.axi_master_env_h.axi_master_agt.axi_master_mon_h [Monitor] wlast = 0
# UVM_INFO monitor/axi_master_monitor.sv(119) @ 235000: uvm_test_top.axi_master_env_h.axi_master_agt.axi_master_mon_h [Monitor] wlast = 0
# UVM_INFO monitor/axi_master_monitor.sv(119) @ 245000: uvm_test_top.axi_master_env_h.axi_master_agt.axi_master_mon_h [Monitor] wlast = 0
# UVM_INFO monitor/axi_master_monitor.sv(119) @ 255000: uvm_test_top.axi_master_env_h.axi_master_agt.axi_master_mon_h [Monitor] wlast = 0
# UVM_INFO monitor/axi_master_monitor.sv(119) @ 265000: uvm_test_top.axi_master_env_h.axi_master_agt.axi_master_mon_h [Monitor] wlast = 0
# UVM_INFO monitor/axi_master_monitor.sv(119) @ 275000: uvm_test_top.axi_master_env_h.axi_master_agt.axi_master_mon_h [Monitor] wlast = 0
# UVM_INFO monitor/axi_master_monitor.sv(119) @ 285000: uvm_test_top.axi_master_env_h.axi_master_agt.axi_master_mon_h [Monitor] wlast = 0
# UVM_INFO monitor/axi_master_monitor.sv(119) @ 295000: uvm_test_top.axi_master_env_h.axi_master_agt.axi_master_mon_h [Monitor] wlast = 0
# UVM_INFO monitor/axi_master_monitor.sv(119) @ 305000: uvm_test_top.axi_master_env_h.axi_master_agt.axi_master_mon_h [Monitor] wlast = 0
# UVM_INFO monitor/axi_master_monitor.sv(119) @ 315000: uvm_test_top.axi_master_env_h.axi_master_agt.axi_master_mon_h [Monitor] wlast = 0
# UVM_INFO monitor/axi_master_monitor.sv(119) @ 325000: uvm_test_top.axi_master_env_h.axi_master_agt.axi_master_mon_h [Monitor] wlast = 0
# UVM_INFO monitor/axi_master_monitor.sv(119) @ 335000: uvm_test_top.axi_master_env_h.axi_master_agt.axi_master_mon_h [Monitor] wlast = 0
# UVM_INFO monitor/axi_master_monitor.sv(119) @ 345000: uvm_test_top.axi_master_env_h.axi_master_agt.axi_master_mon_h [Monitor] wlast = 0
# UVM_INFO monitor/axi_master_monitor.sv(119) @ 355000: uvm_test_top.axi_master_env_h.axi_master_agt.axi_master_mon_h [Monitor] wlast = 0
# UVM_INFO monitor/axi_master_monitor.sv(119) @ 365000: uvm_test_top.axi_master_env_h.axi_master_agt.axi_master_mon_h [Monitor] wlast = 0
# UVM_INFO monitor/axi_master_monitor.sv(119) @ 375000: uvm_test_top.axi_master_env_h.axi_master_agt.axi_master_mon_h [Monitor] wlast = 0
# UVM_INFO monitor/axi_master_monitor.sv(119) @ 385000: uvm_test_top.axi_master_env_h.axi_master_agt.axi_master_mon_h [Monitor] wlast = 0
# UVM_INFO monitor/axi_master_monitor.sv(119) @ 395000: uvm_test_top.axi_master_env_h.axi_master_agt.axi_master_mon_h [Monitor] wlast = 0
# UVM_INFO monitor/axi_master_monitor.sv(119) @ 405000: uvm_test_top.axi_master_env_h.axi_master_agt.axi_master_mon_h [Monitor] wlast = 0
# UVM_INFO monitor/axi_master_monitor.sv(119) @ 415000: uvm_test_top.axi_master_env_h.axi_master_agt.axi_master_mon_h [Monitor] wlast = 0
# UVM_INFO monitor/axi_master_monitor.sv(119) @ 425000: uvm_test_top.axi_master_env_h.axi_master_agt.axi_master_mon_h [Monitor] wlast = 0
# UVM_INFO monitor/axi_master_monitor.sv(119) @ 435000: uvm_test_top.axi_master_env_h.axi_master_agt.axi_master_mon_h [Monitor] wlast = 0
# UVM_INFO monitor/axi_master_monitor.sv(119) @ 445000: uvm_test_top.axi_master_env_h.axi_master_agt.axi_master_mon_h [Monitor] wlast = 0
# UVM_INFO monitor/axi_master_monitor.sv(119) @ 455000: uvm_test_top.axi_master_env_h.axi_master_agt.axi_master_mon_h [Monitor] wlast = 0
# UVM_INFO monitor/axi_master_monitor.sv(119) @ 465000: uvm_test_top.axi_master_env_h.axi_master_agt.axi_master_mon_h [Monitor] wlast = 0
# UVM_INFO monitor/axi_master_monitor.sv(119) @ 475000: uvm_test_top.axi_master_env_h.axi_master_agt.axi_master_mon_h [Monitor] wlast = 0
# UVM_INFO monitor/axi_master_monitor.sv(119) @ 485000: uvm_test_top.axi_master_env_h.axi_master_agt.axi_master_mon_h [Monitor] wlast = 0
# UVM_INFO monitor/axi_master_monitor.sv(119) @ 495000: uvm_test_top.axi_master_env_h.axi_master_agt.axi_master_mon_h [Monitor] wlast = 0
# UVM_INFO monitor/axi_master_monitor.sv(119) @ 505000: uvm_test_top.axi_master_env_h.axi_master_agt.axi_master_mon_h [Monitor] wlast = 0
# UVM_INFO monitor/axi_master_monitor.sv(119) @ 515000: uvm_test_top.axi_master_env_h.axi_master_agt.axi_master_mon_h [Monitor] wlast = 0
# UVM_INFO monitor/axi_master_monitor.sv(119) @ 525000: uvm_test_top.axi_master_env_h.axi_master_agt.axi_master_mon_h [Monitor] wlast = 0
# UVM_INFO monitor/axi_master_monitor.sv(119) @ 535000: uvm_test_top.axi_master_env_h.axi_master_agt.axi_master_mon_h [Monitor] wlast = 0
# UVM_INFO monitor/axi_master_monitor.sv(119) @ 545000: uvm_test_top.axi_master_env_h.axi_master_agt.axi_master_mon_h [Monitor] wlast = 0
# UVM_INFO monitor/axi_master_monitor.sv(119) @ 555000: uvm_test_top.axi_master_env_h.axi_master_agt.axi_master_mon_h [Monitor] wlast = 0
# UVM_INFO monitor/axi_master_monitor.sv(119) @ 565000: uvm_test_top.axi_master_env_h.axi_master_agt.axi_master_mon_h [Monitor] wlast = 0
# UVM_INFO monitor/axi_master_monitor.sv(119) @ 575000: uvm_test_top.axi_master_env_h.axi_master_agt.axi_master_mon_h [Monitor] wlast = 0
# UVM_INFO monitor/axi_master_monitor.sv(119) @ 585000: uvm_test_top.axi_master_env_h.axi_master_agt.axi_master_mon_h [Monitor] wlast = 0
# UVM_INFO monitor/axi_master_monitor.sv(119) @ 595000: uvm_test_top.axi_master_env_h.axi_master_agt.axi_master_mon_h [Monitor] wlast = 0
# UVM_INFO monitor/axi_master_monitor.sv(119) @ 605000: uvm_test_top.axi_master_env_h.axi_master_agt.axi_master_mon_h [Monitor] wlast = 0
# UVM_INFO monitor/axi_master_monitor.sv(119) @ 615000: uvm_test_top.axi_master_env_h.axi_master_agt.axi_master_mon_h [Monitor] wlast = 0
# UVM_INFO monitor/axi_master_monitor.sv(119) @ 625000: uvm_test_top.axi_master_env_h.axi_master_agt.axi_master_mon_h [Monitor] wlast = 0
# UVM_INFO monitor/axi_master_monitor.sv(119) @ 635000: uvm_test_top.axi_master_env_h.axi_master_agt.axi_master_mon_h [Monitor] wlast = 0
# UVM_INFO monitor/axi_master_monitor.sv(119) @ 645000: uvm_test_top.axi_master_env_h.axi_master_agt.axi_master_mon_h [Monitor] wlast = 0
# UVM_INFO monitor/axi_master_monitor.sv(119) @ 655000: uvm_test_top.axi_master_env_h.axi_master_agt.axi_master_mon_h [Monitor] wlast = 0
# UVM_INFO monitor/axi_master_monitor.sv(119) @ 665000: uvm_test_top.axi_master_env_h.axi_master_agt.axi_master_mon_h [Monitor] wlast = 0
# UVM_INFO monitor/axi_master_monitor.sv(119) @ 675000: uvm_test_top.axi_master_env_h.axi_master_agt.axi_master_mon_h [Monitor] wlast = 0
# UVM_INFO monitor/axi_master_monitor.sv(119) @ 685000: uvm_test_top.axi_master_env_h.axi_master_agt.axi_master_mon_h [Monitor] wlast = 0
# UVM_INFO monitor/axi_master_monitor.sv(119) @ 695000: uvm_test_top.axi_master_env_h.axi_master_agt.axi_master_mon_h [Monitor] wlast = 0
# UVM_INFO monitor/axi_master_monitor.sv(119) @ 705000: uvm_test_top.axi_master_env_h.axi_master_agt.axi_master_mon_h [Monitor] wlast = 0
# UVM_INFO monitor/axi_master_monitor.sv(119) @ 715000: uvm_test_top.axi_master_env_h.axi_master_agt.axi_master_mon_h [Monitor] wlast = 0
# UVM_INFO monitor/axi_master_monitor.sv(119) @ 725000: uvm_test_top.axi_master_env_h.axi_master_agt.axi_master_mon_h [Monitor] wlast = 0
# UVM_INFO monitor/axi_master_monitor.sv(119) @ 735000: uvm_test_top.axi_master_env_h.axi_master_agt.axi_master_mon_h [Monitor] wlast = 0
# UVM_INFO monitor/axi_master_monitor.sv(119) @ 745000: uvm_test_top.axi_master_env_h.axi_master_agt.axi_master_mon_h [Monitor] wlast = 0
# UVM_INFO monitor/axi_master_monitor.sv(119) @ 755000: uvm_test_top.axi_master_env_h.axi_master_agt.axi_master_mon_h [Monitor] wlast = 0
# UVM_INFO monitor/axi_master_monitor.sv(119) @ 765000: uvm_test_top.axi_master_env_h.axi_master_agt.axi_master_mon_h [Monitor] wlast = 0
# UVM_INFO monitor/axi_master_monitor.sv(119) @ 775000: uvm_test_top.axi_master_env_h.axi_master_agt.axi_master_mon_h [Monitor] wlast = 0
# UVM_INFO monitor/axi_master_monitor.sv(119) @ 785000: uvm_test_top.axi_master_env_h.axi_master_agt.axi_master_mon_h [Monitor] wlast = 0
# UVM_INFO monitor/axi_master_monitor.sv(119) @ 795000: uvm_test_top.axi_master_env_h.axi_master_agt.axi_master_mon_h [Monitor] wlast = 0
# UVM_INFO monitor/axi_master_monitor.sv(119) @ 805000: uvm_test_top.axi_master_env_h.axi_master_agt.axi_master_mon_h [Monitor] wlast = 0
# UVM_INFO monitor/axi_master_monitor.sv(119) @ 815000: uvm_test_top.axi_master_env_h.axi_master_agt.axi_master_mon_h [Monitor] wlast = 0
# UVM_INFO monitor/axi_master_monitor.sv(119) @ 825000: uvm_test_top.axi_master_env_h.axi_master_agt.axi_master_mon_h [Monitor] wlast = 0
# UVM_INFO monitor/axi_master_monitor.sv(119) @ 835000: uvm_test_top.axi_master_env_h.axi_master_agt.axi_master_mon_h [Monitor] wlast = 0
# UVM_INFO monitor/axi_master_monitor.sv(119) @ 845000: uvm_test_top.axi_master_env_h.axi_master_agt.axi_master_mon_h [Monitor] wlast = 0
# UVM_INFO monitor/axi_master_monitor.sv(119) @ 855000: uvm_test_top.axi_master_env_h.axi_master_agt.axi_master_mon_h [Monitor] wlast = 0
# UVM_INFO monitor/axi_master_monitor.sv(119) @ 865000: uvm_test_top.axi_master_env_h.axi_master_agt.axi_master_mon_h [Monitor] wlast = 0
# UVM_INFO monitor/axi_master_monitor.sv(119) @ 875000: uvm_test_top.axi_master_env_h.axi_master_agt.axi_master_mon_h [Monitor] wlast = 0
# UVM_INFO monitor/axi_master_monitor.sv(119) @ 885000: uvm_test_top.axi_master_env_h.axi_master_agt.axi_master_mon_h [Monitor] wlast = 0
# UVM_INFO monitor/axi_master_monitor.sv(119) @ 895000: uvm_test_top.axi_master_env_h.axi_master_agt.axi_master_mon_h [Monitor] wlast = 0
# UVM_INFO monitor/axi_master_monitor.sv(119) @ 905000: uvm_test_top.axi_master_env_h.axi_master_agt.axi_master_mon_h [Monitor] wlast = 0
# UVM_INFO monitor/axi_master_monitor.sv(119) @ 915000: uvm_test_top.axi_master_env_h.axi_master_agt.axi_master_mon_h [Monitor] wlast = 0
# UVM_INFO monitor/axi_master_monitor.sv(119) @ 925000: uvm_test_top.axi_master_env_h.axi_master_agt.axi_master_mon_h [Monitor] wlast = 0
# UVM_INFO monitor/axi_master_monitor.sv(119) @ 935000: uvm_test_top.axi_master_env_h.axi_master_agt.axi_master_mon_h [Monitor] wlast = 0
# UVM_INFO monitor/axi_master_monitor.sv(119) @ 945000: uvm_test_top.axi_master_env_h.axi_master_agt.axi_master_mon_h [Monitor] wlast = 0
# UVM_INFO monitor/axi_master_monitor.sv(119) @ 955000: uvm_test_top.axi_master_env_h.axi_master_agt.axi_master_mon_h [Monitor] wlast = 0
# UVM_INFO monitor/axi_master_monitor.sv(119) @ 965000: uvm_test_top.axi_master_env_h.axi_master_agt.axi_master_mon_h [Monitor] wlast = 0
# UVM_INFO monitor/axi_master_monitor.sv(119) @ 975000: uvm_test_top.axi_master_env_h.axi_master_agt.axi_master_mon_h [Monitor] wlast = 0
# UVM_INFO monitor/axi_master_monitor.sv(119) @ 985000: uvm_test_top.axi_master_env_h.axi_master_agt.axi_master_mon_h [Monitor] wlast = 0
# UVM_INFO monitor/axi_master_monitor.sv(119) @ 995000: uvm_test_top.axi_master_env_h.axi_master_agt.axi_master_mon_h [Monitor] wlast = 0
# UVM_INFO monitor/axi_master_monitor.sv(119) @ 1005000: uvm_test_top.axi_master_env_h.axi_master_agt.axi_master_mon_h [Monitor] wlast = 0
# UVM_INFO monitor/axi_master_monitor.sv(119) @ 1015000: uvm_test_top.axi_master_env_h.axi_master_agt.axi_master_mon_h [Monitor] wlast = 0
# UVM_INFO monitor/axi_master_monitor.sv(119) @ 1025000: uvm_test_top.axi_master_env_h.axi_master_agt.axi_master_mon_h [Monitor] wlast = 0
# UVM_INFO monitor/axi_master_monitor.sv(119) @ 1035000: uvm_test_top.axi_master_env_h.axi_master_agt.axi_master_mon_h [Monitor] wlast = 0
# UVM_INFO monitor/axi_master_monitor.sv(119) @ 1045000: uvm_test_top.axi_master_env_h.axi_master_agt.axi_master_mon_h [Monitor] wlast = 0
# UVM_INFO monitor/axi_master_monitor.sv(119) @ 1055000: uvm_test_top.axi_master_env_h.axi_master_agt.axi_master_mon_h [Monitor] wlast = 0
# UVM_INFO monitor/axi_master_monitor.sv(119) @ 1065000: uvm_test_top.axi_master_env_h.axi_master_agt.axi_master_mon_h [Monitor] wlast = 0
# UVM_INFO monitor/axi_master_monitor.sv(119) @ 1075000: uvm_test_top.axi_master_env_h.axi_master_agt.axi_master_mon_h [Monitor] wlast = 0
# UVM_INFO monitor/axi_master_monitor.sv(119) @ 1085000: uvm_test_top.axi_master_env_h.axi_master_agt.axi_master_mon_h [Monitor] wlast = 0
# UVM_INFO monitor/axi_master_monitor.sv(119) @ 1095000: uvm_test_top.axi_master_env_h.axi_master_agt.axi_master_mon_h [Monitor] wlast = 0
# UVM_INFO monitor/axi_master_monitor.sv(119) @ 1105000: uvm_test_top.axi_master_env_h.axi_master_agt.axi_master_mon_h [Monitor] wlast = 0
# UVM_INFO monitor/axi_master_monitor.sv(119) @ 1115000: uvm_test_top.axi_master_env_h.axi_master_agt.axi_master_mon_h [Monitor] wlast = 0
# UVM_INFO monitor/axi_master_monitor.sv(119) @ 1125000: uvm_test_top.axi_master_env_h.axi_master_agt.axi_master_mon_h [Monitor] wlast = 0
# UVM_INFO monitor/axi_master_monitor.sv(119) @ 1135000: uvm_test_top.axi_master_env_h.axi_master_agt.axi_master_mon_h [Monitor] wlast = 0
# UVM_INFO monitor/axi_master_monitor.sv(119) @ 1145000: uvm_test_top.axi_master_env_h.axi_master_agt.axi_master_mon_h [Monitor] wlast = 0
# UVM_INFO monitor/axi_master_monitor.sv(119) @ 1155000: uvm_test_top.axi_master_env_h.axi_master_agt.axi_master_mon_h [Monitor] wlast = 0
# UVM_INFO monitor/axi_master_monitor.sv(119) @ 1165000: uvm_test_top.axi_master_env_h.axi_master_agt.axi_master_mon_h [Monitor] wlast = 0
# UVM_INFO monitor/axi_master_monitor.sv(119) @ 1175000: uvm_test_top.axi_master_env_h.axi_master_agt.axi_master_mon_h [Monitor] wlast = 0
# UVM_INFO monitor/axi_master_monitor.sv(119) @ 1185000: uvm_test_top.axi_master_env_h.axi_master_agt.axi_master_mon_h [Monitor] wlast = 0
# UVM_INFO monitor/axi_master_monitor.sv(119) @ 1195000: uvm_test_top.axi_master_env_h.axi_master_agt.axi_master_mon_h [Monitor] wlast = 0
# UVM_INFO monitor/axi_master_monitor.sv(119) @ 1205000: uvm_test_top.axi_master_env_h.axi_master_agt.axi_master_mon_h [Monitor] wlast = 0
# UVM_INFO monitor/axi_master_monitor.sv(119) @ 1215000: uvm_test_top.axi_master_env_h.axi_master_agt.axi_master_mon_h [Monitor] wlast = 0
# UVM_INFO monitor/axi_master_monitor.sv(119) @ 1225000: uvm_test_top.axi_master_env_h.axi_master_agt.axi_master_mon_h [Monitor] wlast = 0
# UVM_INFO monitor/axi_master_monitor.sv(119) @ 1235000: uvm_test_top.axi_master_env_h.axi_master_agt.axi_master_mon_h [Monitor] wlast = 0
# UVM_INFO monitor/axi_master_monitor.sv(119) @ 1245000: uvm_test_top.axi_master_env_h.axi_master_agt.axi_master_mon_h [Monitor] wlast = 0
# UVM_INFO monitor/axi_master_monitor.sv(119) @ 1255000: uvm_test_top.axi_master_env_h.axi_master_agt.axi_master_mon_h [Monitor] wlast = 0
# UVM_INFO monitor/axi_master_monitor.sv(119) @ 1265000: uvm_test_top.axi_master_env_h.axi_master_agt.axi_master_mon_h [Monitor] wlast = 0
# UVM_INFO monitor/axi_master_monitor.sv(119) @ 1275000: uvm_test_top.axi_master_env_h.axi_master_agt.axi_master_mon_h [Monitor] wlast = 0
# UVM_INFO monitor/axi_master_monitor.sv(119) @ 1285000: uvm_test_top.axi_master_env_h.axi_master_agt.axi_master_mon_h [Monitor] wlast = 0
# UVM_INFO monitor/axi_master_monitor.sv(119) @ 1295000: uvm_test_top.axi_master_env_h.axi_master_agt.axi_master_mon_h [Monitor] wlast = 0
# UVM_INFO monitor/axi_master_monitor.sv(119) @ 1305000: uvm_test_top.axi_master_env_h.axi_master_agt.axi_master_mon_h [Monitor] wlast = 0
# UVM_INFO monitor/axi_master_monitor.sv(119) @ 1315000: uvm_test_top.axi_master_env_h.axi_master_agt.axi_master_mon_h [Monitor] wlast = 0
# UVM_INFO monitor/axi_master_monitor.sv(119) @ 1325000: uvm_test_top.axi_master_env_h.axi_master_agt.axi_master_mon_h [Monitor] wlast = 0
# UVM_INFO monitor/axi_master_monitor.sv(119) @ 1335000: uvm_test_top.axi_master_env_h.axi_master_agt.axi_master_mon_h [Monitor] wlast = 0
# UVM_INFO monitor/axi_master_monitor.sv(119) @ 1345000: uvm_test_top.axi_master_env_h.axi_master_agt.axi_master_mon_h [Monitor] wlast = 0
# UVM_INFO monitor/axi_master_monitor.sv(119) @ 1355000: uvm_test_top.axi_master_env_h.axi_master_agt.axi_master_mon_h [Monitor] wlast = 0
# UVM_INFO monitor/axi_master_monitor.sv(119) @ 1365000: uvm_test_top.axi_master_env_h.axi_master_agt.axi_master_mon_h [Monitor] wlast = 0
# UVM_INFO monitor/axi_master_monitor.sv(119) @ 1375000: uvm_test_top.axi_master_env_h.axi_master_agt.axi_master_mon_h [Monitor] wlast = 0
# UVM_INFO monitor/axi_master_monitor.sv(119) @ 1385000: uvm_test_top.axi_master_env_h.axi_master_agt.axi_master_mon_h [Monitor] wlast = 0
# UVM_INFO monitor/axi_master_monitor.sv(119) @ 1395000: uvm_test_top.axi_master_env_h.axi_master_agt.axi_master_mon_h [Monitor] wlast = 0
# UVM_INFO monitor/axi_master_monitor.sv(119) @ 1405000: uvm_test_top.axi_master_env_h.axi_master_agt.axi_master_mon_h [Monitor] wlast = 0
# UVM_INFO monitor/axi_master_monitor.sv(119) @ 1415000: uvm_test_top.axi_master_env_h.axi_master_agt.axi_master_mon_h [Monitor] wlast = 0
# UVM_INFO monitor/axi_master_monitor.sv(119) @ 1425000: uvm_test_top.axi_master_env_h.axi_master_agt.axi_master_mon_h [Monitor] wlast = 0
# UVM_INFO monitor/axi_master_monitor.sv(119) @ 1435000: uvm_test_top.axi_master_env_h.axi_master_agt.axi_master_mon_h [Monitor] wlast = 0
# UVM_INFO monitor/axi_master_monitor.sv(119) @ 1445000: uvm_test_top.axi_master_env_h.axi_master_agt.axi_master_mon_h [Monitor] wlast = 0
# UVM_INFO monitor/axi_master_monitor.sv(119) @ 1455000: uvm_test_top.axi_master_env_h.axi_master_agt.axi_master_mon_h [Monitor] wlast = 0
# UVM_INFO monitor/axi_master_monitor.sv(119) @ 1465000: uvm_test_top.axi_master_env_h.axi_master_agt.axi_master_mon_h [Monitor] wlast = 0
# UVM_INFO monitor/axi_master_monitor.sv(119) @ 1475000: uvm_test_top.axi_master_env_h.axi_master_agt.axi_master_mon_h [Monitor] wlast = 0
# UVM_INFO monitor/axi_master_monitor.sv(119) @ 1485000: uvm_test_top.axi_master_env_h.axi_master_agt.axi_master_mon_h [Monitor] wlast = 0
# UVM_INFO monitor/axi_master_monitor.sv(119) @ 1495000: uvm_test_top.axi_master_env_h.axi_master_agt.axi_master_mon_h [Monitor] wlast = 0
# UVM_INFO monitor/axi_master_monitor.sv(119) @ 1505000: uvm_test_top.axi_master_env_h.axi_master_agt.axi_master_mon_h [Monitor] wlast = 0
# UVM_INFO monitor/axi_master_monitor.sv(119) @ 1515000: uvm_test_top.axi_master_env_h.axi_master_agt.axi_master_mon_h [Monitor] wlast = 0
# UVM_INFO monitor/axi_master_monitor.sv(119) @ 1525000: uvm_test_top.axi_master_env_h.axi_master_agt.axi_master_mon_h [Monitor] wlast = 0
# UVM_INFO monitor/axi_master_monitor.sv(119) @ 1535000: uvm_test_top.axi_master_env_h.axi_master_agt.axi_master_mon_h [Monitor] wlast = 0
# UVM_INFO monitor/axi_master_monitor.sv(119) @ 1545000: uvm_test_top.axi_master_env_h.axi_master_agt.axi_master_mon_h [Monitor] wlast = 0
# UVM_INFO monitor/axi_master_monitor.sv(119) @ 1555000: uvm_test_top.axi_master_env_h.axi_master_agt.axi_master_mon_h [Monitor] wlast = 0
# UVM_INFO monitor/axi_master_monitor.sv(119) @ 1565000: uvm_test_top.axi_master_env_h.axi_master_agt.axi_master_mon_h [Monitor] wlast = 0
# UVM_INFO monitor/axi_master_monitor.sv(119) @ 1575000: uvm_test_top.axi_master_env_h.axi_master_agt.axi_master_mon_h [Monitor] wlast = 0
# UVM_INFO monitor/axi_master_monitor.sv(119) @ 1585000: uvm_test_top.axi_master_env_h.axi_master_agt.axi_master_mon_h [Monitor] wlast = 0
# UVM_INFO monitor/axi_master_monitor.sv(119) @ 1595000: uvm_test_top.axi_master_env_h.axi_master_agt.axi_master_mon_h [Monitor] wlast = 0
# UVM_INFO monitor/axi_master_monitor.sv(119) @ 1605000: uvm_test_top.axi_master_env_h.axi_master_agt.axi_master_mon_h [Monitor] wlast = 0
# UVM_INFO monitor/axi_master_monitor.sv(119) @ 1615000: uvm_test_top.axi_master_env_h.axi_master_agt.axi_master_mon_h [Monitor] wlast = 0
# UVM_INFO monitor/axi_master_monitor.sv(119) @ 1625000: uvm_test_top.axi_master_env_h.axi_master_agt.axi_master_mon_h [Monitor] wlast = 0
# UVM_INFO monitor/axi_master_monitor.sv(119) @ 1635000: uvm_test_top.axi_master_env_h.axi_master_agt.axi_master_mon_h [Monitor] wlast = 0
# UVM_INFO monitor/axi_master_monitor.sv(119) @ 1645000: uvm_test_top.axi_master_env_h.axi_master_agt.axi_master_mon_h [Monitor] wlast = 0
# UVM_INFO monitor/axi_master_monitor.sv(119) @ 1655000: uvm_test_top.axi_master_env_h.axi_master_agt.axi_master_mon_h [Monitor] wlast = 0
# UVM_INFO monitor/axi_master_monitor.sv(119) @ 1665000: uvm_test_top.axi_master_env_h.axi_master_agt.axi_master_mon_h [Monitor] wlast = 0
# UVM_INFO monitor/axi_master_monitor.sv(119) @ 1675000: uvm_test_top.axi_master_env_h.axi_master_agt.axi_master_mon_h [Monitor] wlast = 0
# UVM_INFO monitor/axi_master_monitor.sv(119) @ 1685000: uvm_test_top.axi_master_env_h.axi_master_agt.axi_master_mon_h [Monitor] wlast = 0
# UVM_INFO monitor/axi_master_monitor.sv(119) @ 1695000: uvm_test_top.axi_master_env_h.axi_master_agt.axi_master_mon_h [Monitor] wlast = 0
# UVM_INFO monitor/axi_master_monitor.sv(119) @ 1705000: uvm_test_top.axi_master_env_h.axi_master_agt.axi_master_mon_h [Monitor] wlast = 0
# UVM_INFO monitor/axi_master_monitor.sv(119) @ 1715000: uvm_test_top.axi_master_env_h.axi_master_agt.axi_master_mon_h [Monitor] wlast = 0
# UVM_INFO monitor/axi_master_monitor.sv(119) @ 1725000: uvm_test_top.axi_master_env_h.axi_master_agt.axi_master_mon_h [Monitor] wlast = 0
# UVM_INFO monitor/axi_master_monitor.sv(119) @ 1735000: uvm_test_top.axi_master_env_h.axi_master_agt.axi_master_mon_h [Monitor] wlast = 0
# UVM_INFO monitor/axi_master_monitor.sv(119) @ 1745000: uvm_test_top.axi_master_env_h.axi_master_agt.axi_master_mon_h [Monitor] wlast = 0
# UVM_INFO monitor/axi_master_monitor.sv(119) @ 1755000: uvm_test_top.axi_master_env_h.axi_master_agt.axi_master_mon_h [Monitor] wlast = 0
# UVM_INFO monitor/axi_master_monitor.sv(119) @ 1765000: uvm_test_top.axi_master_env_h.axi_master_agt.axi_master_mon_h [Monitor] wlast = 0
# UVM_INFO monitor/axi_master_monitor.sv(119) @ 1775000: uvm_test_top.axi_master_env_h.axi_master_agt.axi_master_mon_h [Monitor] wlast = 0
# UVM_INFO monitor/axi_master_monitor.sv(119) @ 1785000: uvm_test_top.axi_master_env_h.axi_master_agt.axi_master_mon_h [Monitor] wlast = 0
# UVM_INFO monitor/axi_master_monitor.sv(119) @ 1795000: uvm_test_top.axi_master_env_h.axi_master_agt.axi_master_mon_h [Monitor] wlast = 0
# UVM_INFO monitor/axi_master_monitor.sv(119) @ 1805000: uvm_test_top.axi_master_env_h.axi_master_agt.axi_master_mon_h [Monitor] wlast = 0
# UVM_INFO monitor/axi_master_monitor.sv(119) @ 1815000: uvm_test_top.axi_master_env_h.axi_master_agt.axi_master_mon_h [Monitor] wlast = 0
# UVM_INFO monitor/axi_master_monitor.sv(119) @ 1825000: uvm_test_top.axi_master_env_h.axi_master_agt.axi_master_mon_h [Monitor] wlast = 0
# UVM_INFO monitor/axi_master_monitor.sv(119) @ 1835000: uvm_test_top.axi_master_env_h.axi_master_agt.axi_master_mon_h [Monitor] wlast = 0
# UVM_INFO monitor/axi_master_monitor.sv(119) @ 1845000: uvm_test_top.axi_master_env_h.axi_master_agt.axi_master_mon_h [Monitor] wlast = 0
# UVM_INFO monitor/axi_master_monitor.sv(119) @ 1855000: uvm_test_top.axi_master_env_h.axi_master_agt.axi_master_mon_h [Monitor] wlast = 0
# UVM_INFO monitor/axi_master_monitor.sv(119) @ 1865000: uvm_test_top.axi_master_env_h.axi_master_agt.axi_master_mon_h [Monitor] wlast = 0
# UVM_INFO monitor/axi_master_monitor.sv(119) @ 1875000: uvm_test_top.axi_master_env_h.axi_master_agt.axi_master_mon_h [Monitor] wlast = 0
# UVM_INFO monitor/axi_master_monitor.sv(119) @ 1885000: uvm_test_top.axi_master_env_h.axi_master_agt.axi_master_mon_h [Monitor] wlast = 0
# UVM_INFO monitor/axi_master_monitor.sv(119) @ 1895000: uvm_test_top.axi_master_env_h.axi_master_agt.axi_master_mon_h [Monitor] wlast = 0
# UVM_INFO monitor/axi_master_monitor.sv(119) @ 1905000: uvm_test_top.axi_master_env_h.axi_master_agt.axi_master_mon_h [Monitor] wlast = 0
# UVM_INFO monitor/axi_master_monitor.sv(119) @ 1915000: uvm_test_top.axi_master_env_h.axi_master_agt.axi_master_mon_h [Monitor] wlast = 0
# UVM_INFO monitor/axi_master_monitor.sv(119) @ 1925000: uvm_test_top.axi_master_env_h.axi_master_agt.axi_master_mon_h [Monitor] wlast = 0
# UVM_INFO monitor/axi_master_monitor.sv(119) @ 1935000: uvm_test_top.axi_master_env_h.axi_master_agt.axi_master_mon_h [Monitor] wlast = 0
# UVM_INFO monitor/axi_master_monitor.sv(119) @ 1945000: uvm_test_top.axi_master_env_h.axi_master_agt.axi_master_mon_h [Monitor] wlast = 0
# UVM_INFO monitor/axi_master_monitor.sv(119) @ 1955000: uvm_test_top.axi_master_env_h.axi_master_agt.axi_master_mon_h [Monitor] wlast = 0
# UVM_INFO monitor/axi_master_monitor.sv(119) @ 1965000: uvm_test_top.axi_master_env_h.axi_master_agt.axi_master_mon_h [Monitor] wlast = 0
# UVM_INFO monitor/axi_master_monitor.sv(119) @ 1975000: uvm_test_top.axi_master_env_h.axi_master_agt.axi_master_mon_h [Monitor] wlast = 0
# UVM_INFO monitor/axi_master_monitor.sv(119) @ 1985000: uvm_test_top.axi_master_env_h.axi_master_agt.axi_master_mon_h [Monitor] wlast = 0
# UVM_INFO monitor/axi_master_monitor.sv(119) @ 1995000: uvm_test_top.axi_master_env_h.axi_master_agt.axi_master_mon_h [Monitor] wlast = 0
# UVM_INFO monitor/axi_master_monitor.sv(119) @ 2005000: uvm_test_top.axi_master_env_h.axi_master_agt.axi_master_mon_h [Monitor] wlast = 0
# UVM_INFO monitor/axi_master_monitor.sv(119) @ 2015000: uvm_test_top.axi_master_env_h.axi_master_agt.axi_master_mon_h [Monitor] wlast = 0
# UVM_INFO monitor/axi_master_monitor.sv(119) @ 2025000: uvm_test_top.axi_master_env_h.axi_master_agt.axi_master_mon_h [Monitor] wlast = 0
# UVM_INFO monitor/axi_master_monitor.sv(119) @ 2035000: uvm_test_top.axi_master_env_h.axi_master_agt.axi_master_mon_h [Monitor] wlast = 0
# UVM_INFO axi_master_driver.sv(67) @ 2035000: uvm_test_top.axi_master_env_h.axi_master_agt.axi_master_drv_h [DRIVER after driving] AT TIME 2035000 virtual interface awvalid 1, req awvalid 1
# UVM_INFO axi_master_driver.sv(58) @ 2035000: uvm_test_top.axi_master_env_h.axi_master_agt.axi_master_drv_h [driver] before get next
# UVM_INFO monitor/axi_master_monitor.sv(119) @ 2045000: uvm_test_top.axi_master_env_h.axi_master_agt.axi_master_mon_h [Monitor] wlast = 0
# UVM_INFO monitor/axi_master_monitor.sv(119) @ 2055000: uvm_test_top.axi_master_env_h.axi_master_agt.axi_master_mon_h [Monitor] wlast = 1
# UVM_INFO verilog_src/uvm-1.1d/src/base/uvm_objection.svh(1268) @ 2135000: reporter [TEST_DONE] 'run' phase is ready to proceed to the 'extract' phase
# 
# --- UVM Report Summary ---
# 
# ** Report counts by severity
# UVM_INFO :  218
# UVM_WARNING :    1
# UVM_ERROR :    0
# UVM_FATAL :    0
# ** Report counts by id
# [DRIVER after driving]     1
# [Monitor]   201
# [Monitor: ]     1
# [Questa UVM]     2
# [RNTST]     1
# [TEST_DONE]     1
# [TOP]     1
# [VALID READY]     4
# [axi_master_write_16b_test]     3
# [driver]     3
# [uvm_sequence_base]     1
# ** Note: $finish    : /tools/mentor/questasim_10.6c/questasim/linux/../verilog_src/uvm-1.1d/src/base/uvm_root.svh(430)
#    Time: 2135 ns  Iteration: 54  Instance: /axi_master_top
# Saving coverage database on exit...
# End time: 12:45:41 on Jan 23,2024, Elapsed time: 0:00:04
# Errors: 0, Warnings: 107
