# //  Questa Sim
# //  Version 10.6c linux Jul 25 2017
# //
# //  Copyright 1991-2017 Mentor Graphics Corporation
# //  All Rights Reserved.
# //
# //  QuestaSim and its associated documentation contain trade
# //  secrets and commercial or financial information that are the property of
# //  Mentor Graphics Corporation and are privileged, confidential,
# //  and exempt from disclosure under the Freedom of Information Act,
# //  5 U.S.C. Section 552. Furthermore, this information
# //  is prohibited from disclosure under the Trade Secrets Act,
# //  18 U.S.C. Section 1905.
# //
# vsim -novopt work.axi_master_top 
# Start time: 16:13:37 on Jan 23,2024
# ** Warning: (vsim-8891) All optimizations are turned off because the -novopt switch is in effect. This will cause your simulation to run very slowly. If you are using this switch to preserve visibility for Debug or PLI features please see the User's Manual section on Preserving Object Visibility with vopt.
# Loading sv_std.std
# Loading work.axi4_globals_pkg
# Loading mtiUvm.uvm_pkg
# Loading work.axi_master_top_sv_unit
# Loading work.axi_master_top
# Loading work.axi_master_interface
# Loading work.axi_ram
# Loading mtiUvm.questa_uvm_pkg
# ** Warning: (vsim-8637) monitor/axi_master_monitor.sv(63): A modport ('axi_master_mo_mp') should not be used in a hierarchical path.
#    Time: 0 ps  Iteration: 0  Region: /axi_master_top_sv_unit File: axi_master_top.sv
# ** Warning: (vsim-8637) axi_master_driver.sv(172): A modport ('axi_master_dr_mp') should not be used in a hierarchical path.
#    Time: 0 ps  Iteration: 0  Region: /axi_master_top_sv_unit::axi_master_driver File: axi_master_top.sv
# ** Warning: (vsim-8637) axi_master_driver.sv(160): A modport ('axi_master_dr_mp') should not be used in a hierarchical path.
#    Time: 0 ps  Iteration: 0  Region: /axi_master_top_sv_unit::axi_master_driver File: axi_master_top.sv
# ** Warning: (vsim-8637) axi_master_driver.sv(159): A modport ('axi_master_dr_mp') should not be used in a hierarchical path.
#    Time: 0 ps  Iteration: 0  Region: /axi_master_top_sv_unit::axi_master_driver File: axi_master_top.sv
# ** Warning: (vsim-8637) axi_master_driver.sv(158): A modport ('axi_master_dr_mp') should not be used in a hierarchical path.
#    Time: 0 ps  Iteration: 0  Region: /axi_master_top_sv_unit::axi_master_driver File: axi_master_top.sv
# ** Warning: (vsim-8637) axi_master_driver.sv(157): A modport ('axi_master_dr_mp') should not be used in a hierarchical path.
#    Time: 0 ps  Iteration: 0  Region: /axi_master_top_sv_unit::axi_master_driver File: axi_master_top.sv
# ** Warning: (vsim-8637) axi_master_driver.sv(156): A modport ('axi_master_dr_mp') should not be used in a hierarchical path.
#    Time: 0 ps  Iteration: 0  Region: /axi_master_top_sv_unit::axi_master_driver File: axi_master_top.sv
# ** Warning: (vsim-8637) axi_master_driver.sv(155): A modport ('axi_master_dr_mp') should not be used in a hierarchical path.
#    Time: 0 ps  Iteration: 0  Region: /axi_master_top_sv_unit::axi_master_driver File: axi_master_top.sv
# ** Warning: (vsim-8637) axi_master_driver.sv(154): A modport ('axi_master_dr_mp') should not be used in a hierarchical path.
#    Time: 0 ps  Iteration: 0  Region: /axi_master_top_sv_unit::axi_master_driver File: axi_master_top.sv
# ** Warning: (vsim-8637) axi_master_driver.sv(153): A modport ('axi_master_dr_mp') should not be used in a hierarchical path.
#    Time: 0 ps  Iteration: 0  Region: /axi_master_top_sv_unit::axi_master_driver File: axi_master_top.sv
# ** Warning: (vsim-8637) axi_master_driver.sv(152): A modport ('axi_master_dr_mp') should not be used in a hierarchical path.
#    Time: 0 ps  Iteration: 0  Region: /axi_master_top_sv_unit::axi_master_driver File: axi_master_top.sv
# ** Warning: (vsim-8637) axi_master_driver.sv(148): A modport ('axi_master_dr_mp') should not be used in a hierarchical path.
#    Time: 0 ps  Iteration: 0  Region: /axi_master_top_sv_unit::axi_master_driver File: axi_master_top.sv
# ** Warning: (vsim-8637) axi_master_driver.sv(130): A modport ('axi_master_dr_mp') should not be used in a hierarchical path.
#    Time: 0 ps  Iteration: 0  Region: /axi_master_top_sv_unit::axi_master_driver File: axi_master_top.sv
# ** Warning: (vsim-8637) axi_master_driver.sv(112): A modport ('axi_master_dr_mp') should not be used in a hierarchical path.
#    Time: 0 ps  Iteration: 0  Region: /axi_master_top_sv_unit::axi_master_driver File: axi_master_top.sv
# ** Warning: (vsim-8637) axi_master_driver.sv(110): A modport ('axi_master_dr_mp') should not be used in a hierarchical path.
#    Time: 0 ps  Iteration: 0  Region: /axi_master_top_sv_unit::axi_master_driver File: axi_master_top.sv
# ** Warning: (vsim-8637) axi_master_driver.sv(109): A modport ('axi_master_dr_mp') should not be used in a hierarchical path.
#    Time: 0 ps  Iteration: 0  Region: /axi_master_top_sv_unit::axi_master_driver File: axi_master_top.sv
# ** Warning: (vsim-8637) axi_master_driver.sv(108): A modport ('axi_master_dr_mp') should not be used in a hierarchical path.
#    Time: 0 ps  Iteration: 0  Region: /axi_master_top_sv_unit::axi_master_driver File: axi_master_top.sv
# ** Warning: (vsim-8637) axi_master_driver.sv(107): A modport ('axi_master_dr_mp') should not be used in a hierarchical path.
#    Time: 0 ps  Iteration: 0  Region: /axi_master_top_sv_unit::axi_master_driver File: axi_master_top.sv
# ** Warning: (vsim-8637) axi_master_driver.sv(92): A modport ('axi_master_dr_mp') should not be used in a hierarchical path.
#    Time: 0 ps  Iteration: 0  Region: /axi_master_top_sv_unit::axi_master_driver File: axi_master_top.sv
# ** Warning: (vsim-8637) axi_master_driver.sv(91): A modport ('axi_master_dr_mp') should not be used in a hierarchical path.
#    Time: 0 ps  Iteration: 0  Region: /axi_master_top_sv_unit::axi_master_driver File: axi_master_top.sv
# ** Warning: (vsim-8637) axi_master_driver.sv(90): A modport ('axi_master_dr_mp') should not be used in a hierarchical path.
#    Time: 0 ps  Iteration: 0  Region: /axi_master_top_sv_unit::axi_master_driver File: axi_master_top.sv
# ** Warning: (vsim-8637) axi_master_driver.sv(89): A modport ('axi_master_dr_mp') should not be used in a hierarchical path.
#    Time: 0 ps  Iteration: 0  Region: /axi_master_top_sv_unit::axi_master_driver File: axi_master_top.sv
# ** Warning: (vsim-8637) axi_master_driver.sv(88): A modport ('axi_master_dr_mp') should not be used in a hierarchical path.
#    Time: 0 ps  Iteration: 0  Region: /axi_master_top_sv_unit::axi_master_driver File: axi_master_top.sv
# ** Warning: (vsim-8637) axi_master_driver.sv(87): A modport ('axi_master_dr_mp') should not be used in a hierarchical path.
#    Time: 0 ps  Iteration: 0  Region: /axi_master_top_sv_unit::axi_master_driver File: axi_master_top.sv
# ** Warning: (vsim-8637) axi_master_driver.sv(86): A modport ('axi_master_dr_mp') should not be used in a hierarchical path.
#    Time: 0 ps  Iteration: 0  Region: /axi_master_top_sv_unit::axi_master_driver File: axi_master_top.sv
# ** Warning: (vsim-8637) axi_master_driver.sv(85): A modport ('axi_master_dr_mp') should not be used in a hierarchical path.
#    Time: 0 ps  Iteration: 0  Region: /axi_master_top_sv_unit::axi_master_driver File: axi_master_top.sv
# ** Warning: (vsim-8637) axi_master_driver.sv(84): A modport ('axi_master_dr_mp') should not be used in a hierarchical path.
#    Time: 0 ps  Iteration: 0  Region: /axi_master_top_sv_unit::axi_master_driver File: axi_master_top.sv
# ** Warning: (vsim-8637) axi_master_driver.sv(67): A modport ('axi_master_dr_mp') should not be used in a hierarchical path.
#    Time: 0 ps  Iteration: 0  Region: /axi_master_top_sv_unit::axi_master_driver File: axi_master_top.sv
# ** Warning: (vsim-8637) axi_master_driver.sv(53): A modport ('axi_master_dr_mp') should not be used in a hierarchical path.
#    Time: 0 ps  Iteration: 0  Region: /axi_master_top_sv_unit::axi_master_driver File: axi_master_top.sv
# ** Warning: (vsim-8637) axi_master_driver.sv(50): A modport ('axi_master_dr_mp') should not be used in a hierarchical path.
#    Time: 0 ps  Iteration: 0  Region: /axi_master_top_sv_unit::axi_master_driver File: axi_master_top.sv
# ** Warning: (vsim-8637) axi_master_driver.sv(49): A modport ('axi_master_dr_mp') should not be used in a hierarchical path.
#    Time: 0 ps  Iteration: 0  Region: /axi_master_top_sv_unit::axi_master_driver File: axi_master_top.sv
# Loading /tools/mentor/questasim_10.6c/questasim/uvm-1.1d/linux/uvm_dpi.so
add wave -position insertpoint sim:/axi_master_top/dut/*
run -a
# ----------------------------------------------------------------
# UVM-1.1d
# (C) 2007-2013 Mentor Graphics Corporation
# (C) 2007-2013 Cadence Design Systems, Inc.
# (C) 2006-2013 Synopsys, Inc.
# (C) 2011-2013 Cypress Semiconductor Corp.
# ----------------------------------------------------------------
# 
#   ***********       IMPORTANT RELEASE NOTES         ************
# 
#   You are using a version of the UVM library that has been compiled
#   with `UVM_NO_DEPRECATED undefined.
#   See http://www.eda.org/svdb/view.php?id=3313 for more details.
# 
#   You are using a version of the UVM library that has been compiled
#   with `UVM_OBJECT_MUST_HAVE_CONSTRUCTOR undefined.
#   See http://www.eda.org/svdb/view.php?id=3770 for more details.
# 
#       (Specify +UVM_NO_RELNOTES to turn off this notice)
# 
# UVM_INFO verilog_src/questa_uvm_pkg-1.2/src/questa_uvm_pkg.sv(215) @ 0: reporter [Questa UVM] QUESTA_UVM-1.2.3
# UVM_INFO verilog_src/questa_uvm_pkg-1.2/src/questa_uvm_pkg.sv(217) @ 0: reporter [Questa UVM]  questa_uvm::init(+struct)
# UVM_INFO axi_master_top.sv(79) @ 0: reporter [TOP] in top
# UVM_INFO @ 0: reporter [RNTST] Running test axi_master_write_16b_test...
# UVM_INFO monitor/axi_master_monitor.sv(49) @ 0: uvm_test_top.axi_master_env_h.axi_master_agt.axi_master_mon_h [Monitor: ] Vif found
# UVM_INFO test/axi_base_test.sv(57) @ 0: uvm_test_top [axi_master_write_16b_test] Inside BASE_TEST
# UVM_INFO test/axi_base_test.sv(60) @ 0: uvm_test_top [axi_master_write_16b_test] Done BASE_TEST
# UVM_INFO test/axi_master_write_16b_test.sv(34) @ 0: uvm_test_top [axi_master_write_16b_test] axi_master_write_16b_test
# reset in driver = 1 at time 0
# UVM_WARNING @ 0: uvm_test_top.axi_master_env_h.axi_master_agt.axi_master_seqr_h@@axi_master_write_16b_transfer_h [uvm_sequence_base] Body definition undefined
# reset in driver = 1 at time 5000
# at time 15000 reset is 0
# UVM_INFO monitor/axi_master_monitor.sv(72) @ 15000: uvm_test_top.axi_master_env_h.axi_master_agt.axi_master_mon_h [VALID READY] awvalid = x, awready = 0
# UVM_INFO axi_master_driver.sv(58) @ 15000: uvm_test_top.axi_master_env_h.axi_master_agt.axi_master_drv_h [driver] before get next
# write tr
# -----------------------------------------------------------------------------------------------------------------------------------------------------------
# Name                           Type                    Size  Value                                                                                         
# -----------------------------------------------------------------------------------------------------------------------------------------------------------
# req                            axi_master_transaction  -     @673                                                                                          
#   begin_time                   time                    64    15000                                                                                         
#   depth                        int                     32    'd2                                                                                           
#   parent sequence (name)       string                  31    axi_master_write_16b_transfer_h                                                               
#   parent sequence (full name)  string                  94    uvm_test_top.axi_master_env_h.axi_master_agt.axi_master_seqr_h.axi_master_write_16b_transfer_h
#   sequencer                    string                  62    uvm_test_top.axi_master_env_h.axi_master_agt.axi_master_seqr_h                                
# -----------------------------------------------------------------------------------------------------------------------------------------------------------
# UVM_INFO axi_master_driver.sv(60) @ 15000: uvm_test_top.axi_master_env_h.axi_master_agt.axi_master_drv_h [driver] AFTER get next
# UVM_INFO monitor/axi_master_monitor.sv(72) @ 25000: uvm_test_top.axi_master_env_h.axi_master_agt.axi_master_mon_h [VALID READY] awvalid = 0, awready = 0
# UVM_INFO monitor/axi_master_monitor.sv(72) @ 35000: uvm_test_top.axi_master_env_h.axi_master_agt.axi_master_mon_h [VALID READY] awvalid = 0, awready = 1
# UVM_INFO monitor/axi_master_monitor.sv(77) @ 45000: uvm_test_top.axi_master_env_h.axi_master_agt.axi_master_mon_h [VALID READY] awvalid = 1, awready = 1
# UVM_INFO monitor/axi_master_monitor.sv(119) @ 55000: uvm_test_top.axi_master_env_h.axi_master_agt.axi_master_mon_h [Monitor] wlast = 0
# UVM_INFO monitor/axi_master_monitor.sv(119) @ 65000: uvm_test_top.axi_master_env_h.axi_master_agt.axi_master_mon_h [Monitor] wlast = 0
# UVM_INFO monitor/axi_master_monitor.sv(119) @ 75000: uvm_test_top.axi_master_env_h.axi_master_agt.axi_master_mon_h [Monitor] wlast = 0
# UVM_INFO monitor/axi_master_monitor.sv(119) @ 85000: uvm_test_top.axi_master_env_h.axi_master_agt.axi_master_mon_h [Monitor] wlast = 0
# UVM_INFO monitor/axi_master_monitor.sv(119) @ 95000: uvm_test_top.axi_master_env_h.axi_master_agt.axi_master_mon_h [Monitor] wlast = 0
# UVM_INFO monitor/axi_master_monitor.sv(119) @ 105000: uvm_test_top.axi_master_env_h.axi_master_agt.axi_master_mon_h [Monitor] wlast = 0
# UVM_INFO monitor/axi_master_monitor.sv(119) @ 115000: uvm_test_top.axi_master_env_h.axi_master_agt.axi_master_mon_h [Monitor] wlast = 0
# UVM_INFO monitor/axi_master_monitor.sv(119) @ 125000: uvm_test_top.axi_master_env_h.axi_master_agt.axi_master_mon_h [Monitor] wlast = 0
# UVM_INFO monitor/axi_master_monitor.sv(119) @ 135000: uvm_test_top.axi_master_env_h.axi_master_agt.axi_master_mon_h [Monitor] wlast = 0
# UVM_INFO monitor/axi_master_monitor.sv(119) @ 145000: uvm_test_top.axi_master_env_h.axi_master_agt.axi_master_mon_h [Monitor] wlast = 0
# UVM_INFO monitor/axi_master_monitor.sv(119) @ 155000: uvm_test_top.axi_master_env_h.axi_master_agt.axi_master_mon_h [Monitor] wlast = 0
# UVM_INFO monitor/axi_master_monitor.sv(119) @ 165000: uvm_test_top.axi_master_env_h.axi_master_agt.axi_master_mon_h [Monitor] wlast = 0
# UVM_INFO monitor/axi_master_monitor.sv(119) @ 175000: uvm_test_top.axi_master_env_h.axi_master_agt.axi_master_mon_h [Monitor] wlast = 0
# UVM_INFO monitor/axi_master_monitor.sv(119) @ 185000: uvm_test_top.axi_master_env_h.axi_master_agt.axi_master_mon_h [Monitor] wlast = 0
# UVM_INFO monitor/axi_master_monitor.sv(119) @ 195000: uvm_test_top.axi_master_env_h.axi_master_agt.axi_master_mon_h [Monitor] wlast = 0
# UVM_INFO monitor/axi_master_monitor.sv(119) @ 205000: uvm_test_top.axi_master_env_h.axi_master_agt.axi_master_mon_h [Monitor] wlast = 0
# UVM_INFO monitor/axi_master_monitor.sv(119) @ 215000: uvm_test_top.axi_master_env_h.axi_master_agt.axi_master_mon_h [Monitor] wlast = 0
# UVM_INFO monitor/axi_master_monitor.sv(119) @ 225000: uvm_test_top.axi_master_env_h.axi_master_agt.axi_master_mon_h [Monitor] wlast = 0
# UVM_INFO monitor/axi_master_monitor.sv(119) @ 235000: uvm_test_top.axi_master_env_h.axi_master_agt.axi_master_mon_h [Monitor] wlast = 0
# UVM_INFO monitor/axi_master_monitor.sv(119) @ 245000: uvm_test_top.axi_master_env_h.axi_master_agt.axi_master_mon_h [Monitor] wlast = 0
# UVM_INFO monitor/axi_master_monitor.sv(119) @ 255000: uvm_test_top.axi_master_env_h.axi_master_agt.axi_master_mon_h [Monitor] wlast = 0
# UVM_INFO monitor/axi_master_monitor.sv(119) @ 265000: uvm_test_top.axi_master_env_h.axi_master_agt.axi_master_mon_h [Monitor] wlast = 0
# UVM_INFO monitor/axi_master_monitor.sv(119) @ 275000: uvm_test_top.axi_master_env_h.axi_master_agt.axi_master_mon_h [Monitor] wlast = 0
# UVM_INFO monitor/axi_master_monitor.sv(119) @ 285000: uvm_test_top.axi_master_env_h.axi_master_agt.axi_master_mon_h [Monitor] wlast = 0
# UVM_INFO monitor/axi_master_monitor.sv(119) @ 295000: uvm_test_top.axi_master_env_h.axi_master_agt.axi_master_mon_h [Monitor] wlast = 0
# UVM_INFO monitor/axi_master_monitor.sv(119) @ 305000: uvm_test_top.axi_master_env_h.axi_master_agt.axi_master_mon_h [Monitor] wlast = 0
# UVM_INFO monitor/axi_master_monitor.sv(119) @ 315000: uvm_test_top.axi_master_env_h.axi_master_agt.axi_master_mon_h [Monitor] wlast = 0
# UVM_INFO monitor/axi_master_monitor.sv(119) @ 325000: uvm_test_top.axi_master_env_h.axi_master_agt.axi_master_mon_h [Monitor] wlast = 0
# UVM_INFO monitor/axi_master_monitor.sv(119) @ 335000: uvm_test_top.axi_master_env_h.axi_master_agt.axi_master_mon_h [Monitor] wlast = 0
# UVM_INFO monitor/axi_master_monitor.sv(119) @ 345000: uvm_test_top.axi_master_env_h.axi_master_agt.axi_master_mon_h [Monitor] wlast = 0
# UVM_INFO monitor/axi_master_monitor.sv(119) @ 355000: uvm_test_top.axi_master_env_h.axi_master_agt.axi_master_mon_h [Monitor] wlast = 0
# UVM_INFO monitor/axi_master_monitor.sv(119) @ 365000: uvm_test_top.axi_master_env_h.axi_master_agt.axi_master_mon_h [Monitor] wlast = 0
# UVM_INFO monitor/axi_master_monitor.sv(119) @ 375000: uvm_test_top.axi_master_env_h.axi_master_agt.axi_master_mon_h [Monitor] wlast = 0
# UVM_INFO monitor/axi_master_monitor.sv(119) @ 385000: uvm_test_top.axi_master_env_h.axi_master_agt.axi_master_mon_h [Monitor] wlast = 0
# UVM_INFO monitor/axi_master_monitor.sv(119) @ 395000: uvm_test_top.axi_master_env_h.axi_master_agt.axi_master_mon_h [Monitor] wlast = 0
# UVM_INFO monitor/axi_master_monitor.sv(119) @ 405000: uvm_test_top.axi_master_env_h.axi_master_agt.axi_master_mon_h [Monitor] wlast = 0
# UVM_INFO monitor/axi_master_monitor.sv(119) @ 415000: uvm_test_top.axi_master_env_h.axi_master_agt.axi_master_mon_h [Monitor] wlast = 0
# UVM_INFO monitor/axi_master_monitor.sv(119) @ 425000: uvm_test_top.axi_master_env_h.axi_master_agt.axi_master_mon_h [Monitor] wlast = 0
# UVM_INFO monitor/axi_master_monitor.sv(119) @ 435000: uvm_test_top.axi_master_env_h.axi_master_agt.axi_master_mon_h [Monitor] wlast = 0
# UVM_INFO monitor/axi_master_monitor.sv(119) @ 445000: uvm_test_top.axi_master_env_h.axi_master_agt.axi_master_mon_h [Monitor] wlast = 0
# UVM_INFO monitor/axi_master_monitor.sv(119) @ 455000: uvm_test_top.axi_master_env_h.axi_master_agt.axi_master_mon_h [Monitor] wlast = 0
# UVM_INFO monitor/axi_master_monitor.sv(119) @ 465000: uvm_test_top.axi_master_env_h.axi_master_agt.axi_master_mon_h [Monitor] wlast = 0
# UVM_INFO monitor/axi_master_monitor.sv(119) @ 475000: uvm_test_top.axi_master_env_h.axi_master_agt.axi_master_mon_h [Monitor] wlast = 0
# UVM_INFO monitor/axi_master_monitor.sv(119) @ 485000: uvm_test_top.axi_master_env_h.axi_master_agt.axi_master_mon_h [Monitor] wlast = 0
# UVM_INFO monitor/axi_master_monitor.sv(119) @ 495000: uvm_test_top.axi_master_env_h.axi_master_agt.axi_master_mon_h [Monitor] wlast = 0
# UVM_INFO monitor/axi_master_monitor.sv(119) @ 505000: uvm_test_top.axi_master_env_h.axi_master_agt.axi_master_mon_h [Monitor] wlast = 0
# UVM_INFO monitor/axi_master_monitor.sv(119) @ 515000: uvm_test_top.axi_master_env_h.axi_master_agt.axi_master_mon_h [Monitor] wlast = 0
# UVM_INFO monitor/axi_master_monitor.sv(119) @ 525000: uvm_test_top.axi_master_env_h.axi_master_agt.axi_master_mon_h [Monitor] wlast = 0
# UVM_INFO monitor/axi_master_monitor.sv(119) @ 535000: uvm_test_top.axi_master_env_h.axi_master_agt.axi_master_mon_h [Monitor] wlast = 0
# UVM_INFO monitor/axi_master_monitor.sv(119) @ 545000: uvm_test_top.axi_master_env_h.axi_master_agt.axi_master_mon_h [Monitor] wlast = 0
# UVM_INFO monitor/axi_master_monitor.sv(119) @ 555000: uvm_test_top.axi_master_env_h.axi_master_agt.axi_master_mon_h [Monitor] wlast = 0
# UVM_INFO monitor/axi_master_monitor.sv(119) @ 565000: uvm_test_top.axi_master_env_h.axi_master_agt.axi_master_mon_h [Monitor] wlast = 0
# UVM_INFO monitor/axi_master_monitor.sv(119) @ 575000: uvm_test_top.axi_master_env_h.axi_master_agt.axi_master_mon_h [Monitor] wlast = 0
# UVM_INFO monitor/axi_master_monitor.sv(119) @ 585000: uvm_test_top.axi_master_env_h.axi_master_agt.axi_master_mon_h [Monitor] wlast = 0
# UVM_INFO monitor/axi_master_monitor.sv(119) @ 595000: uvm_test_top.axi_master_env_h.axi_master_agt.axi_master_mon_h [Monitor] wlast = 0
# UVM_INFO monitor/axi_master_monitor.sv(119) @ 605000: uvm_test_top.axi_master_env_h.axi_master_agt.axi_master_mon_h [Monitor] wlast = 0
# UVM_INFO monitor/axi_master_monitor.sv(119) @ 615000: uvm_test_top.axi_master_env_h.axi_master_agt.axi_master_mon_h [Monitor] wlast = 0
# UVM_INFO monitor/axi_master_monitor.sv(119) @ 625000: uvm_test_top.axi_master_env_h.axi_master_agt.axi_master_mon_h [Monitor] wlast = 0
# UVM_INFO monitor/axi_master_monitor.sv(119) @ 635000: uvm_test_top.axi_master_env_h.axi_master_agt.axi_master_mon_h [Monitor] wlast = 0
# UVM_INFO monitor/axi_master_monitor.sv(119) @ 645000: uvm_test_top.axi_master_env_h.axi_master_agt.axi_master_mon_h [Monitor] wlast = 0
# UVM_INFO monitor/axi_master_monitor.sv(119) @ 655000: uvm_test_top.axi_master_env_h.axi_master_agt.axi_master_mon_h [Monitor] wlast = 0
# UVM_INFO monitor/axi_master_monitor.sv(119) @ 665000: uvm_test_top.axi_master_env_h.axi_master_agt.axi_master_mon_h [Monitor] wlast = 0
# UVM_INFO monitor/axi_master_monitor.sv(119) @ 675000: uvm_test_top.axi_master_env_h.axi_master_agt.axi_master_mon_h [Monitor] wlast = 0
# UVM_INFO monitor/axi_master_monitor.sv(119) @ 685000: uvm_test_top.axi_master_env_h.axi_master_agt.axi_master_mon_h [Monitor] wlast = 0
# UVM_INFO monitor/axi_master_monitor.sv(119) @ 695000: uvm_test_top.axi_master_env_h.axi_master_agt.axi_master_mon_h [Monitor] wlast = 0
# UVM_INFO monitor/axi_master_monitor.sv(119) @ 705000: uvm_test_top.axi_master_env_h.axi_master_agt.axi_master_mon_h [Monitor] wlast = 0
# UVM_INFO monitor/axi_master_monitor.sv(119) @ 715000: uvm_test_top.axi_master_env_h.axi_master_agt.axi_master_mon_h [Monitor] wlast = 0
# UVM_INFO monitor/axi_master_monitor.sv(119) @ 725000: uvm_test_top.axi_master_env_h.axi_master_agt.axi_master_mon_h [Monitor] wlast = 0
# UVM_INFO monitor/axi_master_monitor.sv(119) @ 735000: uvm_test_top.axi_master_env_h.axi_master_agt.axi_master_mon_h [Monitor] wlast = 0
# UVM_INFO monitor/axi_master_monitor.sv(119) @ 745000: uvm_test_top.axi_master_env_h.axi_master_agt.axi_master_mon_h [Monitor] wlast = 0
# UVM_INFO monitor/axi_master_monitor.sv(119) @ 755000: uvm_test_top.axi_master_env_h.axi_master_agt.axi_master_mon_h [Monitor] wlast = 0
# UVM_INFO monitor/axi_master_monitor.sv(119) @ 765000: uvm_test_top.axi_master_env_h.axi_master_agt.axi_master_mon_h [Monitor] wlast = 0
# UVM_INFO monitor/axi_master_monitor.sv(119) @ 775000: uvm_test_top.axi_master_env_h.axi_master_agt.axi_master_mon_h [Monitor] wlast = 0
# UVM_INFO monitor/axi_master_monitor.sv(119) @ 785000: uvm_test_top.axi_master_env_h.axi_master_agt.axi_master_mon_h [Monitor] wlast = 0
# UVM_INFO monitor/axi_master_monitor.sv(119) @ 795000: uvm_test_top.axi_master_env_h.axi_master_agt.axi_master_mon_h [Monitor] wlast = 0
# UVM_INFO monitor/axi_master_monitor.sv(119) @ 805000: uvm_test_top.axi_master_env_h.axi_master_agt.axi_master_mon_h [Monitor] wlast = 0
# UVM_INFO monitor/axi_master_monitor.sv(119) @ 815000: uvm_test_top.axi_master_env_h.axi_master_agt.axi_master_mon_h [Monitor] wlast = 0
# UVM_INFO monitor/axi_master_monitor.sv(119) @ 825000: uvm_test_top.axi_master_env_h.axi_master_agt.axi_master_mon_h [Monitor] wlast = 0
# UVM_INFO monitor/axi_master_monitor.sv(119) @ 835000: uvm_test_top.axi_master_env_h.axi_master_agt.axi_master_mon_h [Monitor] wlast = 0
# UVM_INFO monitor/axi_master_monitor.sv(119) @ 845000: uvm_test_top.axi_master_env_h.axi_master_agt.axi_master_mon_h [Monitor] wlast = 0
# UVM_INFO monitor/axi_master_monitor.sv(119) @ 855000: uvm_test_top.axi_master_env_h.axi_master_agt.axi_master_mon_h [Monitor] wlast = 0
# UVM_INFO monitor/axi_master_monitor.sv(119) @ 865000: uvm_test_top.axi_master_env_h.axi_master_agt.axi_master_mon_h [Monitor] wlast = 0
# UVM_INFO monitor/axi_master_monitor.sv(119) @ 875000: uvm_test_top.axi_master_env_h.axi_master_agt.axi_master_mon_h [Monitor] wlast = 0
# UVM_INFO monitor/axi_master_monitor.sv(119) @ 885000: uvm_test_top.axi_master_env_h.axi_master_agt.axi_master_mon_h [Monitor] wlast = 0
# UVM_INFO monitor/axi_master_monitor.sv(119) @ 895000: uvm_test_top.axi_master_env_h.axi_master_agt.axi_master_mon_h [Monitor] wlast = 0
# UVM_INFO monitor/axi_master_monitor.sv(119) @ 905000: uvm_test_top.axi_master_env_h.axi_master_agt.axi_master_mon_h [Monitor] wlast = 0
# UVM_INFO monitor/axi_master_monitor.sv(119) @ 915000: uvm_test_top.axi_master_env_h.axi_master_agt.axi_master_mon_h [Monitor] wlast = 0
# UVM_INFO monitor/axi_master_monitor.sv(119) @ 925000: uvm_test_top.axi_master_env_h.axi_master_agt.axi_master_mon_h [Monitor] wlast = 0
# UVM_INFO monitor/axi_master_monitor.sv(119) @ 935000: uvm_test_top.axi_master_env_h.axi_master_agt.axi_master_mon_h [Monitor] wlast = 0
# UVM_INFO monitor/axi_master_monitor.sv(119) @ 945000: uvm_test_top.axi_master_env_h.axi_master_agt.axi_master_mon_h [Monitor] wlast = 0
# UVM_INFO monitor/axi_master_monitor.sv(119) @ 955000: uvm_test_top.axi_master_env_h.axi_master_agt.axi_master_mon_h [Monitor] wlast = 0
# UVM_INFO monitor/axi_master_monitor.sv(119) @ 965000: uvm_test_top.axi_master_env_h.axi_master_agt.axi_master_mon_h [Monitor] wlast = 0
# UVM_INFO monitor/axi_master_monitor.sv(119) @ 975000: uvm_test_top.axi_master_env_h.axi_master_agt.axi_master_mon_h [Monitor] wlast = 0
# UVM_INFO monitor/axi_master_monitor.sv(119) @ 985000: uvm_test_top.axi_master_env_h.axi_master_agt.axi_master_mon_h [Monitor] wlast = 0
# UVM_INFO monitor/axi_master_monitor.sv(119) @ 995000: uvm_test_top.axi_master_env_h.axi_master_agt.axi_master_mon_h [Monitor] wlast = 0
# UVM_INFO monitor/axi_master_monitor.sv(119) @ 1005000: uvm_test_top.axi_master_env_h.axi_master_agt.axi_master_mon_h [Monitor] wlast = 0
# UVM_INFO monitor/axi_master_monitor.sv(119) @ 1015000: uvm_test_top.axi_master_env_h.axi_master_agt.axi_master_mon_h [Monitor] wlast = 0
# UVM_INFO monitor/axi_master_monitor.sv(119) @ 1025000: uvm_test_top.axi_master_env_h.axi_master_agt.axi_master_mon_h [Monitor] wlast = 0
# UVM_INFO monitor/axi_master_monitor.sv(119) @ 1035000: uvm_test_top.axi_master_env_h.axi_master_agt.axi_master_mon_h [Monitor] wlast = 0
# UVM_INFO monitor/axi_master_monitor.sv(119) @ 1045000: uvm_test_top.axi_master_env_h.axi_master_agt.axi_master_mon_h [Monitor] wlast = 0
# UVM_INFO monitor/axi_master_monitor.sv(119) @ 1055000: uvm_test_top.axi_master_env_h.axi_master_agt.axi_master_mon_h [Monitor] wlast = 0
# UVM_INFO monitor/axi_master_monitor.sv(119) @ 1065000: uvm_test_top.axi_master_env_h.axi_master_agt.axi_master_mon_h [Monitor] wlast = 0
# UVM_INFO monitor/axi_master_monitor.sv(119) @ 1075000: uvm_test_top.axi_master_env_h.axi_master_agt.axi_master_mon_h [Monitor] wlast = 0
# UVM_INFO monitor/axi_master_monitor.sv(119) @ 1085000: uvm_test_top.axi_master_env_h.axi_master_agt.axi_master_mon_h [Monitor] wlast = 0
# UVM_INFO monitor/axi_master_monitor.sv(119) @ 1095000: uvm_test_top.axi_master_env_h.axi_master_agt.axi_master_mon_h [Monitor] wlast = 0
# UVM_INFO monitor/axi_master_monitor.sv(119) @ 1105000: uvm_test_top.axi_master_env_h.axi_master_agt.axi_master_mon_h [Monitor] wlast = 0
# UVM_INFO monitor/axi_master_monitor.sv(119) @ 1115000: uvm_test_top.axi_master_env_h.axi_master_agt.axi_master_mon_h [Monitor] wlast = 0
# UVM_INFO monitor/axi_master_monitor.sv(119) @ 1125000: uvm_test_top.axi_master_env_h.axi_master_agt.axi_master_mon_h [Monitor] wlast = 0
# UVM_INFO monitor/axi_master_monitor.sv(119) @ 1135000: uvm_test_top.axi_master_env_h.axi_master_agt.axi_master_mon_h [Monitor] wlast = 0
# UVM_INFO monitor/axi_master_monitor.sv(119) @ 1145000: uvm_test_top.axi_master_env_h.axi_master_agt.axi_master_mon_h [Monitor] wlast = 0
# UVM_INFO monitor/axi_master_monitor.sv(119) @ 1155000: uvm_test_top.axi_master_env_h.axi_master_agt.axi_master_mon_h [Monitor] wlast = 0
# UVM_INFO monitor/axi_master_monitor.sv(119) @ 1165000: uvm_test_top.axi_master_env_h.axi_master_agt.axi_master_mon_h [Monitor] wlast = 0
# UVM_INFO monitor/axi_master_monitor.sv(119) @ 1175000: uvm_test_top.axi_master_env_h.axi_master_agt.axi_master_mon_h [Monitor] wlast = 0
# UVM_INFO monitor/axi_master_monitor.sv(119) @ 1185000: uvm_test_top.axi_master_env_h.axi_master_agt.axi_master_mon_h [Monitor] wlast = 0
# UVM_INFO monitor/axi_master_monitor.sv(119) @ 1195000: uvm_test_top.axi_master_env_h.axi_master_agt.axi_master_mon_h [Monitor] wlast = 0
# UVM_INFO monitor/axi_master_monitor.sv(119) @ 1205000: uvm_test_top.axi_master_env_h.axi_master_agt.axi_master_mon_h [Monitor] wlast = 0
# UVM_INFO monitor/axi_master_monitor.sv(119) @ 1215000: uvm_test_top.axi_master_env_h.axi_master_agt.axi_master_mon_h [Monitor] wlast = 0
# UVM_INFO monitor/axi_master_monitor.sv(119) @ 1225000: uvm_test_top.axi_master_env_h.axi_master_agt.axi_master_mon_h [Monitor] wlast = 0
# UVM_INFO monitor/axi_master_monitor.sv(119) @ 1235000: uvm_test_top.axi_master_env_h.axi_master_agt.axi_master_mon_h [Monitor] wlast = 0
# UVM_INFO monitor/axi_master_monitor.sv(119) @ 1245000: uvm_test_top.axi_master_env_h.axi_master_agt.axi_master_mon_h [Monitor] wlast = 0
# UVM_INFO monitor/axi_master_monitor.sv(119) @ 1255000: uvm_test_top.axi_master_env_h.axi_master_agt.axi_master_mon_h [Monitor] wlast = 0
# UVM_INFO monitor/axi_master_monitor.sv(119) @ 1265000: uvm_test_top.axi_master_env_h.axi_master_agt.axi_master_mon_h [Monitor] wlast = 0
# UVM_INFO monitor/axi_master_monitor.sv(119) @ 1275000: uvm_test_top.axi_master_env_h.axi_master_agt.axi_master_mon_h [Monitor] wlast = 0
# UVM_INFO monitor/axi_master_monitor.sv(119) @ 1285000: uvm_test_top.axi_master_env_h.axi_master_agt.axi_master_mon_h [Monitor] wlast = 0
# UVM_INFO monitor/axi_master_monitor.sv(119) @ 1295000: uvm_test_top.axi_master_env_h.axi_master_agt.axi_master_mon_h [Monitor] wlast = 0
# UVM_INFO monitor/axi_master_monitor.sv(119) @ 1305000: uvm_test_top.axi_master_env_h.axi_master_agt.axi_master_mon_h [Monitor] wlast = 0
# UVM_INFO monitor/axi_master_monitor.sv(119) @ 1315000: uvm_test_top.axi_master_env_h.axi_master_agt.axi_master_mon_h [Monitor] wlast = 0
# UVM_INFO monitor/axi_master_monitor.sv(119) @ 1325000: uvm_test_top.axi_master_env_h.axi_master_agt.axi_master_mon_h [Monitor] wlast = 0
# UVM_INFO monitor/axi_master_monitor.sv(119) @ 1335000: uvm_test_top.axi_master_env_h.axi_master_agt.axi_master_mon_h [Monitor] wlast = 0
# UVM_INFO monitor/axi_master_monitor.sv(119) @ 1345000: uvm_test_top.axi_master_env_h.axi_master_agt.axi_master_mon_h [Monitor] wlast = 0
# UVM_INFO monitor/axi_master_monitor.sv(119) @ 1355000: uvm_test_top.axi_master_env_h.axi_master_agt.axi_master_mon_h [Monitor] wlast = 0
# UVM_INFO monitor/axi_master_monitor.sv(119) @ 1365000: uvm_test_top.axi_master_env_h.axi_master_agt.axi_master_mon_h [Monitor] wlast = 0
# UVM_INFO monitor/axi_master_monitor.sv(119) @ 1375000: uvm_test_top.axi_master_env_h.axi_master_agt.axi_master_mon_h [Monitor] wlast = 0
# UVM_INFO monitor/axi_master_monitor.sv(119) @ 1385000: uvm_test_top.axi_master_env_h.axi_master_agt.axi_master_mon_h [Monitor] wlast = 0
# UVM_INFO monitor/axi_master_monitor.sv(119) @ 1395000: uvm_test_top.axi_master_env_h.axi_master_agt.axi_master_mon_h [Monitor] wlast = 0
# UVM_INFO monitor/axi_master_monitor.sv(119) @ 1405000: uvm_test_top.axi_master_env_h.axi_master_agt.axi_master_mon_h [Monitor] wlast = 0
# UVM_INFO monitor/axi_master_monitor.sv(119) @ 1415000: uvm_test_top.axi_master_env_h.axi_master_agt.axi_master_mon_h [Monitor] wlast = 0
# UVM_INFO monitor/axi_master_monitor.sv(119) @ 1425000: uvm_test_top.axi_master_env_h.axi_master_agt.axi_master_mon_h [Monitor] wlast = 0
# UVM_INFO monitor/axi_master_monitor.sv(119) @ 1435000: uvm_test_top.axi_master_env_h.axi_master_agt.axi_master_mon_h [Monitor] wlast = 0
# UVM_INFO monitor/axi_master_monitor.sv(119) @ 1445000: uvm_test_top.axi_master_env_h.axi_master_agt.axi_master_mon_h [Monitor] wlast = 0
# UVM_INFO monitor/axi_master_monitor.sv(119) @ 1455000: uvm_test_top.axi_master_env_h.axi_master_agt.axi_master_mon_h [Monitor] wlast = 0
# UVM_INFO monitor/axi_master_monitor.sv(119) @ 1465000: uvm_test_top.axi_master_env_h.axi_master_agt.axi_master_mon_h [Monitor] wlast = 0
# UVM_INFO monitor/axi_master_monitor.sv(119) @ 1475000: uvm_test_top.axi_master_env_h.axi_master_agt.axi_master_mon_h [Monitor] wlast = 0
# UVM_INFO monitor/axi_master_monitor.sv(119) @ 1485000: uvm_test_top.axi_master_env_h.axi_master_agt.axi_master_mon_h [Monitor] wlast = 0
# UVM_INFO monitor/axi_master_monitor.sv(119) @ 1495000: uvm_test_top.axi_master_env_h.axi_master_agt.axi_master_mon_h [Monitor] wlast = 0
# UVM_INFO monitor/axi_master_monitor.sv(119) @ 1505000: uvm_test_top.axi_master_env_h.axi_master_agt.axi_master_mon_h [Monitor] wlast = 0
# UVM_INFO monitor/axi_master_monitor.sv(119) @ 1515000: uvm_test_top.axi_master_env_h.axi_master_agt.axi_master_mon_h [Monitor] wlast = 0
# UVM_INFO monitor/axi_master_monitor.sv(119) @ 1525000: uvm_test_top.axi_master_env_h.axi_master_agt.axi_master_mon_h [Monitor] wlast = 0
# UVM_INFO monitor/axi_master_monitor.sv(119) @ 1535000: uvm_test_top.axi_master_env_h.axi_master_agt.axi_master_mon_h [Monitor] wlast = 0
# UVM_INFO monitor/axi_master_monitor.sv(119) @ 1545000: uvm_test_top.axi_master_env_h.axi_master_agt.axi_master_mon_h [Monitor] wlast = 0
# UVM_INFO monitor/axi_master_monitor.sv(119) @ 1555000: uvm_test_top.axi_master_env_h.axi_master_agt.axi_master_mon_h [Monitor] wlast = 0
# UVM_INFO monitor/axi_master_monitor.sv(119) @ 1565000: uvm_test_top.axi_master_env_h.axi_master_agt.axi_master_mon_h [Monitor] wlast = 0
# UVM_INFO monitor/axi_master_monitor.sv(119) @ 1575000: uvm_test_top.axi_master_env_h.axi_master_agt.axi_master_mon_h [Monitor] wlast = 0
# UVM_INFO monitor/axi_master_monitor.sv(119) @ 1585000: uvm_test_top.axi_master_env_h.axi_master_agt.axi_master_mon_h [Monitor] wlast = 0
# UVM_INFO monitor/axi_master_monitor.sv(119) @ 1595000: uvm_test_top.axi_master_env_h.axi_master_agt.axi_master_mon_h [Monitor] wlast = 0
# UVM_INFO monitor/axi_master_monitor.sv(119) @ 1605000: uvm_test_top.axi_master_env_h.axi_master_agt.axi_master_mon_h [Monitor] wlast = 0
# UVM_INFO monitor/axi_master_monitor.sv(119) @ 1615000: uvm_test_top.axi_master_env_h.axi_master_agt.axi_master_mon_h [Monitor] wlast = 0
# UVM_INFO monitor/axi_master_monitor.sv(119) @ 1625000: uvm_test_top.axi_master_env_h.axi_master_agt.axi_master_mon_h [Monitor] wlast = 0
# UVM_INFO monitor/axi_master_monitor.sv(119) @ 1635000: uvm_test_top.axi_master_env_h.axi_master_agt.axi_master_mon_h [Monitor] wlast = 0
# UVM_INFO monitor/axi_master_monitor.sv(119) @ 1645000: uvm_test_top.axi_master_env_h.axi_master_agt.axi_master_mon_h [Monitor] wlast = 0
# UVM_INFO monitor/axi_master_monitor.sv(119) @ 1655000: uvm_test_top.axi_master_env_h.axi_master_agt.axi_master_mon_h [Monitor] wlast = 0
# UVM_INFO monitor/axi_master_monitor.sv(119) @ 1665000: uvm_test_top.axi_master_env_h.axi_master_agt.axi_master_mon_h [Monitor] wlast = 0
# UVM_INFO monitor/axi_master_monitor.sv(119) @ 1675000: uvm_test_top.axi_master_env_h.axi_master_agt.axi_master_mon_h [Monitor] wlast = 0
# UVM_INFO monitor/axi_master_monitor.sv(119) @ 1685000: uvm_test_top.axi_master_env_h.axi_master_agt.axi_master_mon_h [Monitor] wlast = 0
# UVM_INFO monitor/axi_master_monitor.sv(119) @ 1695000: uvm_test_top.axi_master_env_h.axi_master_agt.axi_master_mon_h [Monitor] wlast = 0
# UVM_INFO monitor/axi_master_monitor.sv(119) @ 1705000: uvm_test_top.axi_master_env_h.axi_master_agt.axi_master_mon_h [Monitor] wlast = 0
# UVM_INFO monitor/axi_master_monitor.sv(119) @ 1715000: uvm_test_top.axi_master_env_h.axi_master_agt.axi_master_mon_h [Monitor] wlast = 0
# UVM_INFO monitor/axi_master_monitor.sv(119) @ 1725000: uvm_test_top.axi_master_env_h.axi_master_agt.axi_master_mon_h [Monitor] wlast = 0
# UVM_INFO monitor/axi_master_monitor.sv(119) @ 1735000: uvm_test_top.axi_master_env_h.axi_master_agt.axi_master_mon_h [Monitor] wlast = 0
# UVM_INFO monitor/axi_master_monitor.sv(119) @ 1745000: uvm_test_top.axi_master_env_h.axi_master_agt.axi_master_mon_h [Monitor] wlast = 0
# UVM_INFO monitor/axi_master_monitor.sv(119) @ 1755000: uvm_test_top.axi_master_env_h.axi_master_agt.axi_master_mon_h [Monitor] wlast = 0
# UVM_INFO monitor/axi_master_monitor.sv(119) @ 1765000: uvm_test_top.axi_master_env_h.axi_master_agt.axi_master_mon_h [Monitor] wlast = 0
# UVM_INFO monitor/axi_master_monitor.sv(119) @ 1775000: uvm_test_top.axi_master_env_h.axi_master_agt.axi_master_mon_h [Monitor] wlast = 0
# UVM_INFO monitor/axi_master_monitor.sv(119) @ 1785000: uvm_test_top.axi_master_env_h.axi_master_agt.axi_master_mon_h [Monitor] wlast = 0
# UVM_INFO monitor/axi_master_monitor.sv(119) @ 1795000: uvm_test_top.axi_master_env_h.axi_master_agt.axi_master_mon_h [Monitor] wlast = 0
# UVM_INFO monitor/axi_master_monitor.sv(119) @ 1805000: uvm_test_top.axi_master_env_h.axi_master_agt.axi_master_mon_h [Monitor] wlast = 0
# UVM_INFO monitor/axi_master_monitor.sv(119) @ 1815000: uvm_test_top.axi_master_env_h.axi_master_agt.axi_master_mon_h [Monitor] wlast = 0
# UVM_INFO monitor/axi_master_monitor.sv(119) @ 1825000: uvm_test_top.axi_master_env_h.axi_master_agt.axi_master_mon_h [Monitor] wlast = 0
# UVM_INFO monitor/axi_master_monitor.sv(119) @ 1835000: uvm_test_top.axi_master_env_h.axi_master_agt.axi_master_mon_h [Monitor] wlast = 0
# UVM_INFO monitor/axi_master_monitor.sv(119) @ 1845000: uvm_test_top.axi_master_env_h.axi_master_agt.axi_master_mon_h [Monitor] wlast = 0
# UVM_INFO monitor/axi_master_monitor.sv(119) @ 1855000: uvm_test_top.axi_master_env_h.axi_master_agt.axi_master_mon_h [Monitor] wlast = 0
# UVM_INFO monitor/axi_master_monitor.sv(119) @ 1865000: uvm_test_top.axi_master_env_h.axi_master_agt.axi_master_mon_h [Monitor] wlast = 0
# UVM_INFO monitor/axi_master_monitor.sv(119) @ 1875000: uvm_test_top.axi_master_env_h.axi_master_agt.axi_master_mon_h [Monitor] wlast = 0
# UVM_INFO monitor/axi_master_monitor.sv(119) @ 1885000: uvm_test_top.axi_master_env_h.axi_master_agt.axi_master_mon_h [Monitor] wlast = 0
# UVM_INFO monitor/axi_master_monitor.sv(119) @ 1895000: uvm_test_top.axi_master_env_h.axi_master_agt.axi_master_mon_h [Monitor] wlast = 0
# UVM_INFO monitor/axi_master_monitor.sv(119) @ 1905000: uvm_test_top.axi_master_env_h.axi_master_agt.axi_master_mon_h [Monitor] wlast = 0
# UVM_INFO monitor/axi_master_monitor.sv(119) @ 1915000: uvm_test_top.axi_master_env_h.axi_master_agt.axi_master_mon_h [Monitor] wlast = 0
# UVM_INFO monitor/axi_master_monitor.sv(119) @ 1925000: uvm_test_top.axi_master_env_h.axi_master_agt.axi_master_mon_h [Monitor] wlast = 0
# UVM_INFO monitor/axi_master_monitor.sv(119) @ 1935000: uvm_test_top.axi_master_env_h.axi_master_agt.axi_master_mon_h [Monitor] wlast = 0
# UVM_INFO monitor/axi_master_monitor.sv(119) @ 1945000: uvm_test_top.axi_master_env_h.axi_master_agt.axi_master_mon_h [Monitor] wlast = 0
# UVM_INFO monitor/axi_master_monitor.sv(119) @ 1955000: uvm_test_top.axi_master_env_h.axi_master_agt.axi_master_mon_h [Monitor] wlast = 0
# UVM_INFO monitor/axi_master_monitor.sv(119) @ 1965000: uvm_test_top.axi_master_env_h.axi_master_agt.axi_master_mon_h [Monitor] wlast = 0
# UVM_INFO monitor/axi_master_monitor.sv(119) @ 1975000: uvm_test_top.axi_master_env_h.axi_master_agt.axi_master_mon_h [Monitor] wlast = 0
# UVM_INFO monitor/axi_master_monitor.sv(119) @ 1985000: uvm_test_top.axi_master_env_h.axi_master_agt.axi_master_mon_h [Monitor] wlast = 0
# UVM_INFO monitor/axi_master_monitor.sv(119) @ 1995000: uvm_test_top.axi_master_env_h.axi_master_agt.axi_master_mon_h [Monitor] wlast = 0
# UVM_INFO monitor/axi_master_monitor.sv(119) @ 2005000: uvm_test_top.axi_master_env_h.axi_master_agt.axi_master_mon_h [Monitor] wlast = 0
# UVM_INFO monitor/axi_master_monitor.sv(119) @ 2015000: uvm_test_top.axi_master_env_h.axi_master_agt.axi_master_mon_h [Monitor] wlast = 0
# UVM_INFO monitor/axi_master_monitor.sv(119) @ 2025000: uvm_test_top.axi_master_env_h.axi_master_agt.axi_master_mon_h [Monitor] wlast = 0
# UVM_INFO monitor/axi_master_monitor.sv(119) @ 2035000: uvm_test_top.axi_master_env_h.axi_master_agt.axi_master_mon_h [Monitor] wlast = 0
# UVM_INFO axi_master_driver.sv(67) @ 2035000: uvm_test_top.axi_master_env_h.axi_master_agt.axi_master_drv_h [DRIVER after driving] AT TIME 2035000 virtual interface awvalid 1, req awvalid 1
# UVM_INFO axi_master_driver.sv(58) @ 2035000: uvm_test_top.axi_master_env_h.axi_master_agt.axi_master_drv_h [driver] before get next
# read tr
# -----------------------------------------------------------------------------------------------------------------------------------------------------------
# Name                           Type                    Size  Value                                                                                         
# -----------------------------------------------------------------------------------------------------------------------------------------------------------
# req                            axi_master_transaction  -     @702                                                                                          
#   begin_time                   time                    64    2035000                                                                                       
#   depth                        int                     32    'd2                                                                                           
#   parent sequence (name)       string                  31    axi_master_write_16b_transfer_h                                                               
#   parent sequence (full name)  string                  94    uvm_test_top.axi_master_env_h.axi_master_agt.axi_master_seqr_h.axi_master_write_16b_transfer_h
#   sequencer                    string                  62    uvm_test_top.axi_master_env_h.axi_master_agt.axi_master_seqr_h                                
# -----------------------------------------------------------------------------------------------------------------------------------------------------------
# UVM_INFO axi_master_driver.sv(60) @ 2035000: uvm_test_top.axi_master_env_h.axi_master_agt.axi_master_drv_h [driver] AFTER get next
# UVM_INFO axi_master_driver.sv(67) @ 2045000: uvm_test_top.axi_master_env_h.axi_master_agt.axi_master_drv_h [DRIVER after driving] AT TIME 2045000 virtual interface awvalid 1, req awvalid 0
# UVM_INFO axi_master_driver.sv(58) @ 2045000: uvm_test_top.axi_master_env_h.axi_master_agt.axi_master_drv_h [driver] before get next
# UVM_INFO monitor/axi_master_monitor.sv(119) @ 2045000: uvm_test_top.axi_master_env_h.axi_master_agt.axi_master_mon_h [Monitor] wlast = 0
# UVM_INFO monitor/axi_master_monitor.sv(119) @ 2055000: uvm_test_top.axi_master_env_h.axi_master_agt.axi_master_mon_h [Monitor] wlast = 1
# BEFORE WRITE PROCESS ENDS
# AFTER FORK JOIN ANY OF MONITOR(BEFORE WRITE CALL
# BVALID AND BREADY 1 1
# INSIDE WRITE FUNCTION OF SCOREBOARD
# WRITE SUCCESS ARRAY: {55075:3259890801} {55077:3363018480} {55079:3316100025} {55081:2949160048} {55083:1532117376} {55085:2872657663} {55087:3394511649} {55089:1354477823} {55091:787249189} {55093:674974168} {55095:2199573688} {55097:2310844063} {55099:1327792403} {55101:4162978832} {55103:969945751} {55105:2859622561} {55107:503803467} {55109:1660585720} {55111:611865066} {55113:1964359495} {55115:989145931} {55117:3166509795} {55119:3925643091} {55121:1232526066} {55123:896768883} {55125:3198206445} {55127:2653203386} {55129:2400492995} {55131:860569259} {55133:2656036378} {55135:2777540125} {55137:4272872141} {55139:3158755614} {55141:832017067} {55143:2800563614} {55145:2785511767} {55147:4225125908} {55149:3307187871} {55151:3639852971} {55153:418666045} {55155:3465645468} {55157:2191514583} {55159:1560793487} {55161:1213784059} {55163:1255939200} {55165:3250330837} {55167:1905384152} {55169:2849447275} {55171:2003071710} {55173:4108552379} {55175:1633622449} {55177:1217640282} {55179:81478092} {55181:1361808989} {55183:1891903365} {55185:1381937337} {55187:2321621334} {55189:1914494959} {55191:696170188} {55193:1325341792} {55195:3627974255} {55197:190385521} {55199:1939237108} {55201:931381483} {55203:1203283806} {55205:1277695879} {55207:859264429} {55209:3004423242} {55211:2720488760} {55213:2796250223} {55215:3948966431} {55217:1679854728} {55219:788662716} {55221:242102324} {55223:2800667655} {55225:3623230915} {55227:2658020841} {55229:1783609792} {55231:4116610960} {55233:3029342684} {55235:815127618} {55237:381058949} {55239:3185140194} {55241:191981102} {55243:841057845} {55245:3376915589} {55247:960438669} {55249:2355610007} {55251:590050641} {55253:3343150908} {55255:1979456004} {55257:4062104085} {55259:854710317} {55261:2767219579} {55263:425796681} {55265:2167560111} {55267:3352910410} {55269:475383139} {55271:3297523089} {55273:3850223339} {55275:2237772240} {55277:3317051812} {55279:1955697132} {55281:1483921750} {55283:3270992352} {55285:498309409} {55287:1204407830} {55289:2971048151} {55291:2076186215} {55293:1759665698} {55295:566225837} {55297:1466969916} {55299:2320553035} {55301:1855159199} {55303:1702731615} {55305:3471622114} {55307:3096621933} {55309:708350434} {55311:2958251545} {55313:3907196699} {55315:359773525} {55317:1097593521} {55319:3998864425} {55321:608796281} {55323:1957573189} {55325:3997318979} {55327:274693292} {55329:1750407624} {55331:1716847596} {55333:840612117} {55335:1153013148} {55337:2016990906} {55339:1121868050} {55341:1702246738} {55343:4269852338} {55345:3478648722} {55347:3492415303} {55349:2355263964} {55351:802451055} {55353:1643220885} {55355:3219627664} {55357:3605185504} {55359:2715966507} {55361:1211954430} {55363:2142398904} {55365:743120416} {55367:3108564659} {55369:3149015600} {55371:1041752424} {55373:579160514} {55375:2298205491} {55377:2145805647} {55379:839645778} {55381:1429076621} {55383:2380771554} {55385:2824477672} {55387:4009672217} {55389:868243441} {55391:591326774} {55393:2064550406} {55395:3304317169} {55397:1716028743} {55399:4211757949} {55401:1470366526} {55403:2727986960} {55405:1783087705} {55407:712360933} {55409:2183335018} {55411:843195334} {55413:3895663037} {55415:3899843689} {55417:4147920222} {55419:2122504054} {55421:891860360} {55423:322192579} {55425:677430783} {55427:231088338} {55429:4294150908} {55431:1320270695} {55433:835067682} {55435:3903873506} {55437:2567936389} {55439:4045185892} {55441:2440805419} {55443:2169363762} {55445:3482030023} {55447:1034613587} {55449:2154117321} {55451:2888321109} {55453:2288974342} {55455:3851170040} {55457:2748298983} {55459:385913321} {55461:1984629242} {55463:4169416482} {55465:1158343547} {55467:28190494} {55469:2687576006} {55471:2248197490} {55473:3844486746} {55475:3617010653} {55477:0} 
# at time 2085000 reset is 0
# UVM_INFO monitor/axi_master_monitor.sv(72) @ 2085000: uvm_test_top.axi_master_env_h.axi_master_agt.axi_master_mon_h [VALID READY] awvalid = 1, awready = 0
# UVM_INFO monitor/axi_master_monitor.sv(119) @ 2095000: uvm_test_top.axi_master_env_h.axi_master_agt.axi_master_mon_h [Monitor] wlast = 1
# UVM_INFO monitor/axi_master_monitor.sv(72) @ 2095000: uvm_test_top.axi_master_env_h.axi_master_agt.axi_master_mon_h [VALID READY] awvalid = 1, awready = 0
# UVM_INFO monitor/axi_master_monitor.sv(72) @ 2105000: uvm_test_top.axi_master_env_h.axi_master_agt.axi_master_mon_h [VALID READY] awvalid = 1, awready = 0
# UVM_INFO monitor/axi_master_monitor.sv(72) @ 2115000: uvm_test_top.axi_master_env_h.axi_master_agt.axi_master_mon_h [VALID READY] awvalid = 1, awready = 0
# UVM_INFO monitor/axi_master_monitor.sv(72) @ 2125000: uvm_test_top.axi_master_env_h.axi_master_agt.axi_master_mon_h [VALID READY] awvalid = 1, awready = 0
# UVM_INFO monitor/axi_master_monitor.sv(72) @ 2135000: uvm_test_top.axi_master_env_h.axi_master_agt.axi_master_mon_h [VALID READY] awvalid = 1, awready = 0
# UVM_INFO monitor/axi_master_monitor.sv(72) @ 2145000: uvm_test_top.axi_master_env_h.axi_master_agt.axi_master_mon_h [VALID READY] awvalid = 1, awready = 0
# UVM_INFO verilog_src/uvm-1.1d/src/base/uvm_objection.svh(1268) @ 2145000: reporter [TEST_DONE] 'run' phase is ready to proceed to the 'extract' phase
# 
# --- UVM Report Summary ---
# 
# ** Report counts by severity
# UVM_INFO :  229
# UVM_WARNING :    1
# UVM_ERROR :    0
# UVM_FATAL :    0
# ** Report counts by id
# [DRIVER after driving]     2
# [Monitor]   202
# [Monitor: ]     1
# [Questa UVM]     2
# [RNTST]     1
# [TEST_DONE]     1
# [TOP]     1
# [VALID READY]    11
# [axi_master_write_16b_test]     3
# [driver]     5
# [uvm_sequence_base]     1
# ** Note: $finish    : /tools/mentor/questasim_10.6c/questasim/linux/../verilog_src/uvm-1.1d/src/base/uvm_root.svh(430)
#    Time: 2145 ns  Iteration: 54  Instance: /axi_master_top
# 1
# Break in Task uvm_pkg/uvm_root::run_test at /tools/mentor/questasim_10.6c/questasim/linux/../verilog_src/uvm-1.1d/src/base/uvm_root.svh line 430
# End time: 16:22:26 on Jan 23,2024, Elapsed time: 0:08:49
# Errors: 0, Warnings: 32
